(1651527897.085264) can1 448#0000FF0000000000
(1651527897.090925) can1 088#FF08071819010000
(1651527897.098606) can1 268#EB38000004021802
(1651527897.102600) can1 2A8#C000000822E80000
(1651527897.109137) can1 2C8#CB00000000007F7F
(1651527897.112743) can1 228#10A500C100293A40
(1651527897.117845) can1 068#FC00102F1D438000
(1651527897.120792) can1 1A8#002834782C680000
(1651527897.123608) can1 128#C000000000003F3F
(1651527897.126788) can1 3DD#CC60062712003A1D
(1651527897.130671) can1 1C8#80010F483F012015
(1651527897.134442) can1 308#F000004A0005111B
(1651527897.148821) can1 088#FF0A071839010000
(1651527897.157506) can1 048#FF80308F3A6BA406
(1651527897.167647) can1 208#C0020FA0830838B2
(1651527897.171661) can1 028#7E80140000800000
(1651527897.177159) can1 108#DF64631100000000
(1651527897.184983) can1 168#980A00656C008431
(1651527897.189167) can1 188#3964644A293A4000
(1651527897.192869) can1 1D8#52000000BEC5F335
(1651527897.195270) can1 1E8#2000000000000000
(1651527897.199751) can1 088#FF0B071849010000
(1651527897.203676) can1 348#7850078042380000
(1651527897.206659) can1 388#D74CC88C00293A40
(1651527897.209567) can1 3BC#0380508038000000
(1651527897.211856) can1 3C8#C038272000000000
(1651527897.213998) can1 400#0F02000100000000
(1651527897.217493) can1 401#0352383736353002
(1651527897.219773) can1 402#0F02000100000000
(1651527897.222400) can1 228#10A500C100293A40
(1651527897.225911) can1 404#0000000000000000
(1651527897.234445) can1 1A8#002834782C680000
(1651527897.237010) can1 248#0080EA42BE4BDF00
(1651527897.239416) can1 268#EB38000004021802
(1651527897.241408) can1 405#0000000000000000
(1651527897.243464) can1 2E8#9800000461293A40
(1651527897.248706) can1 068#FC00102F1D438000
(1651527897.250837) can1 088#FF0C071859010000
(1651527897.253449) can1 368#FDC0000800000000
(1651527897.258792) can1 308#F000004A0005111B
(1651527897.262604) can1 2C8#CB00000000007F7F
(1651527897.274223) can1 504#0502000104000000
(1651527897.277888) can1 3B8#8000000000000000
(1651527897.280302) can1 448#0000FF0000000000
(1651527897.283591) can1 1C8#80010F483F012015
(1651527897.285712) can1 088#FF0E071879010000
(1651527897.287905) can1 028#7E80140000800000
(1651527897.291971) can1 108#DF64631100000000
(1651527897.293621) can1 168#B88A00656C008431
(1651527897.295850) can1 048#FE00308F3A6BA406
(1651527897.297832) can1 128#C000000000003F3F
(1651527897.299926) can1 1D8#92000000BEC5F336
(1651527897.301876) can1 1E8#2000000000000000
(1651527897.303888) can1 1A8#002834782C680000
(1651527897.305804) can1 208#C0020FA0830838B2
(1651527897.307986) can1 228#10A500C100293A40
(1651527897.311796) can1 288#F000000000910091
(1651527897.314051) can1 388#F74CC88C00293A40
(1651527897.322692) can1 3BC#0380508038000000
(1651527897.324903) can1 488#8006000000000000
(1651527897.326992) can1 088#FF0F071889010000
(1651527897.330560) can1 268#EB38000004021802
(1651527897.332637) can1 2A8#C000000822E80000
(1651527897.340875) can1 068#FC00102F1D438000
(1651527897.343062) can1 248#0080EA42BE4BDF00
(1651527897.346822) can1 3DD#CC60062712003A1D
(1651527897.355786) can1 308#F000004A0005111B
(1651527897.358263) can1 328#E0000000005C0000
(1651527897.365348) can1 088#FF10071899010000
(1651527897.373748) can1 2C8#C300000000007F7F
(1651527897.376480) can1 228#10A500C100293A40
(1651527897.380776) can1 1A8#002834782C680000
(1651527897.384167) can1 028#7E80140000800000
(1651527897.388845) can1 108#DF64631800000000
(1651527897.392037) can1 168#980A00656C008431
(1651527897.394388) can1 188#3964644A293A4000
(1651527897.397783) can1 1D8#52000000BEC5F337
(1651527897.400563) can1 1E8#2000000000000000
(1651527897.402753) can1 2E8#9800000461293A40
(1651527897.405074) can1 348#7850078042380000
(1651527897.409246) can1 368#FD80000800000000
(1651527897.413171) can1 388#D74CC88C00293A40
(1651527897.415262) can1 088#FF120718B9010000
(1651527897.419166) can1 3C8#C038272000000000
(1651527897.423947) can1 208#C0020FA0830838B2
(1651527897.427586) can1 1C8#80010F483F012015
(1651527897.432714) can1 048#FE00308F3A6BA406
(1651527897.441640) can1 268#EB38000004021802
(1651527897.453108) can1 068#FC00102F1D438000
(1651527897.457665) can1 088#FF130718C9010000
(1651527897.460637) can1 128#C000000000003F3F
(1651527897.465368) can1 3BC#0380508038000000
(1651527897.471366) can1 308#F000004A0005111B
(1651527897.474041) can1 228#10A500C100293A40
(1651527897.477489) can1 3B8#8000000000000000
(1651527897.479881) can1 448#0000FF0000000000
(1651527897.482313) can1 1A8#002834782C680000
(1651527897.487122) can1 248#0080EA42BE4BDF00
(1651527897.501244) can1 028#7E80140000800000
(1651527897.506548) can1 108#DF64631800000000
(1651527897.509027) can1 088#FF140718D9010000
(1651527897.512789) can1 168#B88A00656C008431
(1651527897.515606) can1 1D8#D2000000BEC5F337
(1651527897.517964) can1 388#F74CC88C00293A40
(1651527897.520334) can1 505#0802000105000000
(1651527897.528070) can1 1E8#2000000000000000
(1651527897.530321) can1 2C8#CB00000000007F7F
(1651527897.545047) can1 208#C0020FA0830838B2
(1651527897.550436) can1 088#FF07071809010000
(1651527897.554712) can1 268#EB38000004021802
(1651527897.556767) can1 2A8#C000000822E80000
(1651527897.561356) can1 048#FE00308F3A6BA406
(1651527897.564870) can1 228#10A500C100293A40
(1651527897.569243) can1 068#FC00102F1D438000
(1651527897.574742) can1 1A8#002834782C680000
(1651527897.577942) can1 1C8#80010F483F012015
(1651527897.580258) can1 368#FDC0000800000000
(1651527897.584039) can1 3DD#CC60062712003A1D
(1651527897.587808) can1 2E8#D800000461293A40
(1651527897.591302) can1 308#F000004A0005111B
(1651527897.598342) can1 088#FF08071819010000
(1651527897.606579) can1 028#7E80140000800000
(1651527897.611497) can1 108#DF64631700000000
(1651527897.613610) can1 168#980A00656C008431
(1651527897.616505) can1 188#3964644A293A4000
(1651527897.619085) can1 1D8#12000000BEC5F337
(1651527897.623408) can1 248#0080EA42BE4BDF00
(1651527897.625874) can1 348#7850078042380000
(1651527897.627999) can1 388#D74CC88C00293A40
(1651527897.630543) can1 3BC#0380508038000000
(1651527897.633335) can1 3C8#C038272000000000
(1651527897.636862) can1 128#C000000000003F3F
(1651527897.639974) can1 1E8#2000000000000000
(1651527897.646170) can1 088#FF09071829010000
(1651527897.656396) can1 288#F000000000910091
(1651527897.662119) can1 2C8#CB00000000007F7F
(1651527897.665810) can1 228#10E500C100293A40
(1651527897.670483) can1 1A8#002834782C670000
(1651527897.677398) can1 268#EB38000004021802
(1651527897.682001) can1 208#C0020FA0830838B2
(1651527897.691229) can1 3B8#8000000000000000
(1651527897.698031) can1 068#FC00102F1D438000
(1651527897.703128) can1 088#FF0B071849010000
(1651527897.706665) can1 448#0000FF0000000000
(1651527897.712556) can1 048#FE00308F3A6BA406
(1651527897.715479) can1 308#F000004A0005111B
(1651527897.719158) can1 328#E0000000005C0000
(1651527897.729640) can1 028#7E80140000800000
(1651527897.735848) can1 108#DF64631300000000
(1651527897.738469) can1 168#B88A00656C008431
(1651527897.741730) can1 1C8#80010F483F012015
(1651527897.744404) can1 1D8#D2000000BEC5F338
(1651527897.748061) can1 388#F74CC88C00293A40
(1651527897.752266) can1 088#FF0C071859010000
(1651527897.760066) can1 368#FDC0000800000000
(1651527897.764290) can1 1E8#2000000000000000
(1651527897.767790) can1 228#10A500C100293A40
(1651527897.772821) can1 1A8#002834782C670000
(1651527897.778951) can1 248#0080EA42BE4BDF00
(1651527897.783627) can1 3BC#0380508038000000
(1651527897.787283) can1 400#1000000002010000
(1651527897.790248) can1 401#04014E0000025A00
(1651527897.794971) can1 2E8#9800000461293A40
(1651527897.797352) can1 402#1000000002010000
(1651527897.800806) can1 404#0000000000000000
(1651527897.803478) can1 405#0000000000000000
(1651527897.805473) can1 508#0B12000008000000
(1651527897.808772) can1 088#FF0D071869010000
(1651527897.813912) can1 268#EB38000004021802
(1651527897.816566) can1 2A8#C000000822E80000
(1651527897.824970) can1 2C8#CB00000000007F7F
(1651527897.827906) can1 208#C0020FA0830838B2
(1651527897.831833) can1 068#FC00102F1D438000
(1651527897.834349) can1 3DD#CC60062711003A1D
(1651527897.838190) can1 128#C000000000003F3F
(1651527897.844475) can1 308#F000004A0005111B
(1651527897.849966) can1 088#FF0F071889010000
(1651527897.853944) can1 028#7E80140000800000
(1651527897.860112) can1 108#DF64631500000000
(1651527897.862444) can1 168#980A00656C008431
(1651527897.864450) can1 188#3964644A293A4000
(1651527897.866545) can1 048#FF80308F3A6BA406
(1651527897.868843) can1 1D8#52000000BEC5F338
(1651527897.871696) can1 228#10A500C100293A40
(1651527897.874239) can1 348#7850078042380000
(1651527897.877090) can1 1A8#002834782C680000
(1651527897.880765) can1 388#D74CC88C00293A40
(1651527897.883277) can1 3C8#C038272000000000
(1651527897.889528) can1 1E8#2000000000000000
(1651527897.895975) can1 1C8#80010F483F012015
(1651527897.898375) can1 088#FF10071899010000
(1651527897.908216) can1 3B8#8000000000000000
(1651527897.910311) can1 448#0000FF0000000000
(1651527897.914007) can1 248#0080EA42BE4BDF00
(1651527897.920471) can1 268#EB38000004021802
(1651527897.927946) can1 3BC#0380508038000000
(1651527897.935885) can1 068#FC00102F1D438000
(1651527897.937994) can1 088#FF110718A9010000
(1651527897.941113) can1 368#FDC0000800000000
(1651527897.944387) can1 208#C0020FA0830838B2
(1651527897.948853) can1 308#F000004A0005111B
(1651527897.951333) can1 228#10A500C100293A40
(1651527897.953469) can1 2C8#CB00000000007F7F
(1651527897.956945) can1 1A8#002834782C680000
(1651527897.959254) can1 028#7E80140000800000
(1651527897.964578) can1 108#DF64631200000000
(1651527897.966689) can1 168#B88A00656C008431
(1651527897.968732) can1 1D8#92000000BEC5F339
(1651527897.970683) can1 2E8#9800000461293A40
(1651527897.972674) can1 388#F74DC88C00293A40
(1651527897.978046) can1 488#8007000000000000
(1651527897.981615) can1 088#FF130718C9010000
(1651527897.988694) can1 1E8#2000000000000000
(1651527897.990900) can1 048#FE00308F3A6BA406
(1651527897.994581) can1 128#C000000000003F3F
(1651527898.007717) can1 088#FF140718D9010000
(1651527898.015590) can1 268#EB38000004021802
(1651527898.017492) can1 2A8#C000000822E80000
(1651527898.019827) can1 1C8#80010F483F012015
(1651527898.021952) can1 288#F000000000910091
(1651527898.025110) can1 228#10A500C100293A40
(1651527898.028677) can1 50B#0C1200000B000000
(1651527898.032313) can1 068#FC00102F1D438000
(1651527898.036077) can1 1A8#002834782C680000
(1651527898.038187) can1 248#0080EA42BE4BDF00
(1651527898.041561) can1 3DD#CC60062711003A1D
(1651527898.047008) can1 308#F000004A0005111B
(1651527898.050389) can1 328#E0000000005C0000
(1651527898.053794) can1 208#C0020FA0830838B2
(1651527898.055874) can1 028#7E80140000800000
(1651527898.061127) can1 088#FF150718E9010000
(1651527898.064485) can1 108#DF64631200000000
(1651527898.066416) can1 168#980A00656C008431
(1651527898.069674) can1 188#3964644A293A4000
(1651527898.071770) can1 1D8#52000000BEC5F339
(1651527898.073737) can1 348#7850078042380000
(1651527898.075856) can1 388#D74DC88C00293A40
(1651527898.077700) can1 2C8#CB00000000007F7F
(1651527898.079644) can1 3BC#0380508038000000
(1651527898.081699) can1 3C8#C038272000000000
(1651527898.091656) can1 368#FDC0000800000000
(1651527898.093694) can1 1E8#2000000000000000
(1651527898.096919) can1 3B8#8000000000000000
(1651527898.099037) can1 448#0000FF0000000000
(1651527898.102312) can1 088#FF08071819010000
(1651527898.110997) can1 048#FE00308F3A6BA406
(1651527898.114795) can1 228#10A500C100293A40
(1651527898.119484) can1 1A8#002834782C680000
(1651527898.125667) can1 268#EB38000004021802
(1651527898.129992) can1 2E8#9800000461293A40
(1651527898.137525) can1 068#FC00102F1D438000
(1651527898.141140) can1 088#FF09071829010000
(1651527898.144699) can1 128#C000000000003F3F
(1651527898.150138) can1 028#7E80140000800000
(1651527898.156025) can1 108#DF64631200000000
(1651527898.159477) can1 168#980A00656C008431
(1651527898.161823) can1 1D8#52000000BEC5F33A
(1651527898.164279) can1 1C8#80010F483F012015
(1651527898.167933) can1 248#0080EA42BE4BDF00
(1651527898.170007) can1 308#F000004A0005111B
(1651527898.173151) can1 208#C0020FA0830838B2
(1651527898.176940) can1 388#D74DC88C00293A40
(1651527898.178874) can1 4D8#0000000000000000
(1651527898.184873) can1 088#FF0A071839010000
(1651527898.192534) can1 3BC#0380508038000000
(1651527898.197518) can1 1E8#2000000000000000
(1651527898.200794) can1 228#10A500C100293A40
(1651527898.203762) can1 2C8#C300000000007F7F
(1651527898.208128) can1 1A8#002834772C670000
(1651527898.230660) can1 088#FF0C071859010000
(1651527898.234731) can1 268#EB38000004021802
(1651527898.236913) can1 2A8#C000000822E80000
(1651527898.242628) can1 048#FE00308F3A6BA406
(1651527898.249781) can1 068#FC00102F1D438000
(1651527898.252689) can1 368#FDC0000800000000
(1651527898.257136) can1 3DD#CC60062711003A1D
(1651527898.261013) can1 50C#0F0200400C000000
(1651527898.263726) can1 028#7E80140000800000
(1651527898.270042) can1 108#DF64631500000000
(1651527898.271966) can1 168#B88A00656C008431
(1651527898.276289) can1 188#3964644A293A4000
(1651527898.281562) can1 1D8#92000000BEC5F33A
(1651527898.284611) can1 308#F000004A0005111B
(1651527898.286802) can1 088#FF0D071869010000
(1651527898.289034) can1 348#7850078042380000
(1651527898.292994) can1 388#F74DC88C00293A40
(1651527898.296620) can1 3C8#C038272000000000
(1651527898.301452) can1 228#10E500C100293A40
(1651527898.303892) can1 208#C0020FA0830838B2
(1651527898.306022) can1 3B8#8000000000000000
(1651527898.311087) can1 1A8#002834772C670000
(1651527898.315420) can1 248#0080EA42BE4BDF00
(1651527898.318157) can1 448#0000FF0000000000
(1651527898.322014) can1 2E8#9800000461293A40
(1651527898.326149) can1 1C8#80010F483F012015
(1651527898.329809) can1 128#C000000000003F3F
(1651527898.333127) can1 1E8#2000000000000000
(1651527898.339264) can1 400#1101000000000003
(1651527898.343614) can1 088#FF0E071879010000
(1651527898.346995) can1 401#050006C200000008
(1651527898.350119) can1 402#1101000000000003
(1651527898.353768) can1 404#0167BEC5F33A6006
(1651527898.356566) can1 405#0167BEC5F33A4204
(1651527898.362729) can1 3BC#0380508038000000
(1651527898.365243) can1 2C8#CB00000000007F7F
(1651527898.373759) can1 268#EB38000004021802
(1651527898.384894) can1 068#FC00102F1D438000
(1651527898.387273) can1 088#FF10071899010000
(1651527898.391102) can1 028#7E80140000800000
(1651527898.396672) can1 108#DF64631000000000
(1651527898.399614) can1 168#980A00656C008431
(1651527898.402029) can1 1D8#52000000BEC5F33B
(1651527898.405285) can1 048#FE00308F3A6BA406
(1651527898.408863) can1 228#10A500C100293A40
(1651527898.411162) can1 288#F000000000910091
(1651527898.417513) can1 308#F000004A0005111B
(1651527898.419254) can1 1A8#002834772C670000
(1651527898.421536) can1 328#E0000000005C0000
(1651527898.424316) can1 388#D74DC88C00293A40
(1651527898.437226) can1 088#FF110718A9010000
(1651527898.442736) can1 208#C0020FA0830838B2
(1651527898.446538) can1 368#FDC0000800000000
(1651527898.449403) can1 1E8#2000000000000000
(1651527898.455851) can1 248#0080EA42BE4BDF00
(1651527898.470006) can1 088#FF120718B9010000
(1651527898.476318) can1 1C8#80010F483F012015
(1651527898.480267) can1 268#EB38000004021802
(1651527898.483995) can1 2A8#C000000822E80000
(1651527898.488831) can1 228#10A500C100293A40
(1651527898.492127) can1 2C8#CB00000000007F7F
(1651527898.497059) can1 068#FC00102F1D438000
(1651527898.500147) can1 028#7E80140000800000
(1651527898.505588) can1 108#DF64631100000000
(1651527898.508385) can1 128#C000000000003F3F
(1651527898.510736) can1 168#B88A00656C008431
(1651527898.513633) can1 188#7964644A293A4000
(1651527898.516779) can1 1A8#002834772C670000
(1651527898.519335) can1 1D8#D2000000BEC5F33B
(1651527898.522759) can1 2E8#9800000461293A40
(1651527898.526049) can1 308#F000004A0005111B
(1651527898.530940) can1 348#7850078042380000
(1651527898.535201) can1 088#FF140718D9010000
(1651527898.539192) can1 378#00000000008E2318
(1651527898.544054) can1 388#F74DC88C00293A40
(1651527898.546131) can1 3B8#8000000000000000
(1651527898.550895) can1 3BC#0380508038000000
(1651527898.553392) can1 3C8#C038272000000000
(1651527898.556498) can1 048#FF80308F3A6BA406
(1651527898.561467) can1 3DD#CC60062711003A1D
(1651527898.564116) can1 448#0000FF0000000000
(1651527898.567327) can1 50F#111200400C000000
(1651527898.575144) can1 1E8#2000000000000000
(1651527898.580202) can1 208#C0020FA0830838B2
(1651527898.585091) can1 088#FF150718E9010000
(1651527898.595741) can1 228#10A500C100293A40
(1651527898.601637) can1 1A8#002834772C670000
(1651527898.608920) can1 248#0080EA42BE4BDF00
(1651527898.611374) can1 268#EB38000004021802
(1651527898.619553) can1 028#7E80140000800000
(1651527898.624565) can1 068#FC00102F1D438000
(1651527898.627221) can1 088#FF07071809010000
(1651527898.630633) can1 108#DF64631600000000
(1651527898.633597) can1 168#980A00656C008431
(1651527898.636562) can1 1D8#12000000BEC5F33C
(1651527898.640829) can1 368#FDC0000800000000
(1651527898.645700) can1 1C8#80010F483F012015
(1651527898.651808) can1 388#D74DC88C00293A40
(1651527898.653147) can1 2C8#CB00000000007F7F
(1651527898.658692) can1 308#F000004A0005111B
(1651527898.662356) can1 488#8008000000000000
(1651527898.677704) can1 3BC#0380508038000000
(1651527898.688766) can1 088#FF09071829010000
(1651527898.699149) can1 1E8#2000000000000000
(1651527898.707242) can1 048#FE00308F3A6BA406
(1651527898.715018) can1 128#C000000000003F3F
(1651527898.716966) can1 228#10A500C100293A40
(1651527898.724665) can1 1A8#002834772C670000
(1651527898.738865) can1 208#C0020FA0830838B2
(1651527898.741701) can1 2E8#D800000461293A40
(1651527898.750018) can1 088#FF0A071839010000
(1651527898.759110) can1 268#EB38000004021802
(1651527898.763216) can1 2A8#C000000822E80000
(1651527898.771582) can1 028#7E80140000800000
(1651527898.779724) can1 108#DF64631800000000
(1651527898.782432) can1 168#B88A00656C008431
(1651527898.785381) can1 068#FC00102F1D438000
(1651527898.789028) can1 188#3964644A293A4000
(1651527898.791473) can1 1D8#D2000000BEC5F33C
(1651527898.795434) can1 248#0080EA42BE4BDF00
(1651527898.799764) can1 348#7850078042380000
(1651527898.802174) can1 388#F74DC88C00293A40
(1651527898.806794) can1 3B8#8000000000000000
(1651527898.809470) can1 308#F000004A0005111B
(1651527898.811837) can1 328#E0000000005C0000
(1651527898.814131) can1 3C8#C038272000000000
(1651527898.821650) can1 3DD#CC60062711003A1D
(1651527898.824443) can1 088#FF0B071849010000
(1651527898.826703) can1 448#0000FF0000000000
(1651527898.832967) can1 228#10A500C100293A40
(1651527898.835333) can1 2C8#CB00000000007F7F
(1651527898.840783) can1 1A8#002834772C670000
(1651527898.843610) can1 288#F000000000910091
(1651527898.845816) can1 1C8#80010F483F012015
(1651527898.851664) can1 368#FD80000800000000
(1651527898.853753) can1 1E8#2000000000000000
(1651527898.860239) can1 3BC#0380508038000000
(1651527898.864351) can1 088#FF0D071869010000
(1651527898.867546) can1 511#1302000111000003
(1651527898.875644) can1 048#FE00308F3A6BA406
(1651527898.877908) can1 208#C0020FA0830838B2
(1651527898.884860) can1 268#EB38000004021802
(1651527898.889347) can1 028#7E80140000800000
(1651527898.893834) can1 108#DF64631600000000
(1651527898.896334) can1 168#980A00656C008431
(1651527898.900276) can1 1D8#52000000BEC5F33D
(1651527898.904692) can1 388#D74DC88C00293A40
(1651527898.907729) can1 068#FC00102F1D438000
(1651527898.910053) can1 088#FF0E071879010000
(1651527898.913495) can1 128#C000000000003F3F
(1651527898.920015) can1 228#10A500C100293A40
(1651527898.923108) can1 308#F000004A0005111B
(1651527898.929008) can1 1A8#002834772C670000
(1651527898.934623) can1 248#0080EA42BE4BDF00
(1651527898.939442) can1 2E8#9800000461293A40
(1651527898.949186) can1 088#FF0F071889010000
(1651527898.957007) can1 1E8#2000000000000000
(1651527898.961596) can1 2C8#CB00000000007F7F
(1651527898.965588) can1 400#1201020102040102
(1651527898.968425) can1 401#0600230269227000
(1651527898.971973) can1 402#1201020102040102
(1651527898.975654) can1 404#023A36002E041F6C
(1651527898.978047) can1 405#023A36002E041F6C
(1651527898.985023) can1 1C8#80010F483F012015
(1651527898.989812) can1 3B8#8000000000000000
(1651527898.992368) can1 448#0000FF0000000000
(1651527898.996841) can1 088#FF110718A9010000
(1651527899.003044) can1 028#7E80140000800000
(1651527899.010522) can1 108#DF64631300000000
(1651527899.012616) can1 168#B88A00656C008431
(1651527899.015991) can1 188#3964644A293A4000
(1651527899.018794) can1 048#FE00308F3A6BA406
(1651527899.022205) can1 1D8#92000000BEC5F33D
(1651527899.026606) can1 208#C0020FA0830838B2
(1651527899.029380) can1 068#FC00102E1D438000
(1651527899.033104) can1 1A8#002834772C670000
(1651527899.036869) can1 228#10A500C100293A40
(1651527899.039672) can1 268#EB38000004021802
(1651527899.041977) can1 2A8#C000000822E80000
(1651527899.045197) can1 348#7850078042380000
(1651527899.048648) can1 368#FDC0000800000000
(1651527899.051014) can1 308#F000004A0005111B
(1651527899.052957) can1 388#F74DC88C00293A40
(1651527899.058657) can1 3BC#0380508038000000
(1651527899.061206) can1 3C8#C038272000000000
(1651527899.064744) can1 088#FF120718B9010000
(1651527899.067219) can1 3DD#CC60062711003A1D
(1651527899.078625) can1 248#0080EA42BE4BDF00
(1651527899.088471) can1 1E8#2000000000000000
(1651527899.090726) can1 128#C000000000003F3F
(1651527899.095943) can1 088#FF130718C9010000
(1651527899.104428) can1 228#10E500C100293A40
(1651527899.106477) can1 2C8#C300000000007F7F
(1651527899.110769) can1 1A8#002834772C670000
(1651527899.112818) can1 028#7E80140000800000
(1651527899.118766) can1 108#DF64631100000000
(1651527899.120927) can1 168#980A00656C008431
(1651527899.122886) can1 1D8#52000000BEC5F33E
(1651527899.124904) can1 268#EB38000004021802
(1651527899.127043) can1 2E8#9800000461293A40
(1651527899.130266) can1 208#C0020FA0830838B2
(1651527899.133563) can1 388#D74DC88C00293A40
(1651527899.135783) can1 068#FC00102F1D438000
(1651527899.137779) can1 088#FF150718E9010000
(1651527899.139927) can1 1C8#80010F483F012015
(1651527899.141407) can1 513#0102100013000001
(1651527899.150419) can1 048#FE00308F3A6BA406
(1651527899.154461) can1 308#F000004A0005111B
(1651527899.156887) can1 328#E0000000005C0000
(1651527899.158960) can1 3BC#0380508038000000
(1651527899.171076) can1 088#FF07071809010000
(1651527899.180385) can1 368#FDC0000800000000
(1651527899.182386) can1 228#10A500C100293A40
(1651527899.185576) can1 1E8#2000000000000000
(1651527899.188052) can1 3B8#8000000000000000
(1651527899.191048) can1 288#F000000000910091
(1651527899.193537) can1 1A8#002834772C670000
(1651527899.196012) can1 248#0080EA42BE4BDF00
(1651527899.198532) can1 448#0000FF0000000000
(1651527899.207958) can1 028#7E80140000800000
(1651527899.215970) can1 108#DF64631400000000
(1651527899.218413) can1 088#FF08071819010000
(1651527899.224273) can1 168#B88A00656C008431
(1651527899.227137) can1 188#3964644A293A4000
(1651527899.230892) can1 1D8#D2000000BEC5F33E
(1651527899.233912) can1 268#EB38000004021802
(1651527899.235812) can1 2A8#C000000822E80000
(1651527899.238308) can1 2C8#C900000000007F7F
(1651527899.241862) can1 348#7850078042380000
(1651527899.244189) can1 388#F74DC88C00293A40
(1651527899.247963) can1 068#FC00102F1D438000
(1651527899.251893) can1 3C8#C038272000000000
(1651527899.254327) can1 128#C000000000003F3F
(1651527899.259277) can1 208#C0020FA0830838B2
(1651527899.267566) can1 3DD#CC60062711003A1D
(1651527899.269898) can1 308#F000004A0005111B
(1651527899.276803) can1 088#FF0A071839010000
(1651527899.285196) can1 228#10A500C100293A40
(1651527899.289055) can1 048#FF80308F3A6BA406
(1651527899.291990) can1 1C8#80010F483F012015
(1651527899.295498) can1 1A8#002834772C670000
(1651527899.301558) can1 3BC#0380508038000000
(1651527899.306694) can1 2E8#9800000461293A40
(1651527899.317223) can1 1E8#2000000000000000
(1651527899.322624) can1 488#8009000000000000
(1651527899.325089) can1 088#FF0B071849010000
(1651527899.332872) can1 028#7E80140000800000
(1651527899.338575) can1 108#DF64631500000000
(1651527899.341639) can1 168#980A00656C008431
(1651527899.343978) can1 1D8#52000000BEC5F33F
(1651527899.349315) can1 248#0080EA42BE4BDF00
(1651527899.353548) can1 268#EB38000004021802
(1651527899.356003) can1 388#874DC88C00293A40
(1651527899.364989) can1 068#FC00102F1D438000
(1651527899.367057) can1 088#FF0C071859010000
(1651527899.370474) can1 368#FDC0000800000000
(1651527899.378182) can1 228#10A500C100293A40
(1651527899.381630) can1 308#F000004A0005111B
(1651527899.383993) can1 2C8#CB00000000007F7F
(1651527899.386076) can1 208#C0020FA0830838B2
(1651527899.389250) can1 1A8#002834772C670000
(1651527899.403518) can1 3B8#8000000000000000
(1651527899.405694) can1 448#0000FF0000000000
(1651527899.408010) can1 088#FF0E071879010000
(1651527899.410047) can1 501#0302100013000001
(1651527899.416821) can1 1E8#2000000000000000
(1651527899.419547) can1 048#FE00308F3A6BA406
(1651527899.421528) can1 128#C000000000003F3F
(1651527899.425839) can1 1C8#80010F483F012015
(1651527899.430134) can1 028#7E80140000800000
(1651527899.436746) can1 108#DF64631500000000
(1651527899.438987) can1 168#B88A00656C008431
(1651527899.442180) can1 188#2164644A293A4000
(1651527899.445605) can1 1D8#92000000BEC5F33F
(1651527899.447953) can1 348#7850078042380000
(1651527899.450042) can1 088#FF0F071889010000
(1651527899.457448) can1 268#EB38000004021802
(1651527899.460039) can1 2A8#C000000822E80000
(1651527899.462365) can1 388#F74DC88C00293A40
(1651527899.466722) can1 3BC#0380508038000000
(1651527899.468978) can1 228#10A500C100293A40
(1651527899.471520) can1 3C8#C038272000000000
(1651527899.474955) can1 068#FC00102F1D438000
(1651527899.480386) can1 1A8#002834772C670000
(1651527899.482357) can1 248#0080EA42BE4BDF00
(1651527899.485498) can1 3DD#CC60062711003A1D
(1651527899.487561) can1 2E8#9800000461293A40
(1651527899.492262) can1 308#F000004A0005111B
(1651527899.496081) can1 328#E0000000005C0000
(1651527899.500872) can1 088#FF10071899010000
(1651527899.505405) can1 208#C0020FA0830838B2
(1651527899.514661) can1 2C8#CB00000000007F7F
(1651527899.523859) can1 368#FDC0000800000000
(1651527899.527200) can1 1E8#2000000000000000
(1651527899.533613) can1 400#1302000001000000
(1651527899.535760) can1 088#FF120718B9010000
(1651527899.537829) can1 401#0700FB002341051E
(1651527899.540931) can1 028#7E80140000800000
(1651527899.544556) can1 108#DF64631300000000
(1651527899.546619) can1 168#980A00656C008431
(1651527899.548681) can1 1D8#52000000BEC5F340
(1651527899.550749) can1 048#FE00308F3A6BA406
(1651527899.552664) can1 228#10A500C100293A40
(1651527899.556018) can1 388#D74DC88C00293A40
(1651527899.559544) can1 1A8#002834772C670000
(1651527899.564710) can1 268#EB38000004021802
(1651527899.566687) can1 288#F000000000910091
(1651527899.568719) can1 402#1302000001000000
(1651527899.570746) can1 404#0000000000000000
(1651527899.572707) can1 405#0000000000000000
(1651527899.574661) can1 1C8#80010F483F012015
(1651527899.578997) can1 3BC#0380508038000000
(1651527899.582497) can1 068#FC00102F1D438000
(1651527899.584606) can1 088#FF130718C9010000
(1651527899.587157) can1 128#C000000000003F3F
(1651527899.594424) can1 308#F000004A0005111B
(1651527899.596844) can1 3B8#8000000000000000
(1651527899.598879) can1 448#0000FF0000000000
(1651527899.602054) can1 248#0080EA42BE4BDF00
(1651527899.613055) can1 208#C0020FA0830838B2
(1651527899.617400) can1 088#FF140718D9010000
(1651527899.624719) can1 228#10A500C100293A40
(1651527899.626725) can1 1E8#2000000000000000
(1651527899.628794) can1 2C8#CB00000000007F7F
(1651527899.631315) can1 503#0402100013000001
(1651527899.634542) can1 1A8#002834772C680000
(1651527899.638202) can1 028#7E80140000800000
(1651527899.643469) can1 108#DF64631200000000
(1651527899.645638) can1 168#B88A00656C008431
(1651527899.647886) can1 188#3964644A293A4000
(1651527899.649793) can1 1D8#D2000000BEC5F340
(1651527899.651729) can1 2E8#9800000461293A40
(1651527899.654041) can1 348#7850078042380000
(1651527899.657189) can1 388#F74DC88C00293A40
(1651527899.660910) can1 3C8#C038272000000000
(1651527899.664081) can1 088#FF07071809010000
(1651527899.669693) can1 268#EB38000004021802
(1651527899.671852) can1 2A8#C000000822E80000
(1651527899.679733) can1 048#FE00308F3A6BA406
(1651527899.683320) can1 068#FC00102F1D438000
(1651527899.686473) can1 368#FDC0000800000000
(1651527899.688601) can1 3DD#CC60062711003A1D
(1651527899.695044) can1 308#F000004A0005111B
(1651527899.701603) can1 088#FF08071819010000
(1651527899.703652) can1 1C8#80010F483F012015
(1651527899.708941) can1 3BC#0380508038000000
(1651527899.713288) can1 228#10E500C100293A40
(1651527899.720641) can1 1A8#002834772C680000
(1651527899.724480) can1 248#0080EA42BE4BDF00
(1651527899.728109) can1 208#C0020FA0830838B2
(1651527899.733583) can1 1E8#2000000000000000
(1651527899.735789) can1 128#C000000000003F3F
(1651527899.737915) can1 028#7E80140000800000
(1651527899.744850) can1 108#DF64631500000000
(1651527899.747001) can1 088#FF09071829010000
(1651527899.750516) can1 168#980A00656C008431
(1651527899.752748) can1 1D8#12000000BEC5F341
(1651527899.755014) can1 388#D74DC88C00293A40
(1651527899.760534) can1 2C8#CB00000000007F7F
(1651527899.768380) can1 268#EB38000004021802
(1651527899.780784) can1 3B8#8000000000000000
(1651527899.783428) can1 448#0000FF0000000000
(1651527899.785794) can1 068#FC00102F1D438000
(1651527899.788299) can1 088#FF0B071849010000
(1651527899.794876) can1 228#10A500C100293A40
(1651527899.798730) can1 048#FE00308F3A6BA406
(1651527899.801225) can1 308#F000004A0005111B
(1651527899.804872) can1 328#E0000000005C0000
(1651527899.806966) can1 1A8#002834772C670000
(1651527899.815864) can1 2E8#D800000461293A40
(1651527899.825043) can1 088#FF0C071859010000
(1651527899.831329) can1 368#FDC0000800000000
(1651527899.835690) can1 1C8#80010F483F012015
(1651527899.837825) can1 028#7E80140000800000
(1651527899.841915) can1 108#DF64631400000000
(1651527899.844985) can1 168#B88A00656C008431
(1651527899.848713) can1 188#3964644A293A4000
(1651527899.851058) can1 1D8#D2000000BEC5F341
(1651527899.854580) can1 1E8#2000000000000000
(1651527899.858120) can1 208#C0020FA0830838B2
(1651527899.860615) can1 248#0080EA42BE4BDF00
(1651527899.863216) can1 348#7850078042380000
(1651527899.866439) can1 388#F74DC88C00293A40
(1651527899.868698) can1 3BC#0380508038000000
(1651527899.872195) can1 3C8#C038272000000000
(1651527899.875636) can1 504#0502000104000000
(1651527899.877884) can1 088#FF0D071869010000
(1651527899.886202) can1 268#EB38000004021802
(1651527899.889895) can1 2A8#C000000822E80000
(1651527899.892077) can1 228#10A500C100293A40
(1651527899.896939) can1 2C8#CB00000000007F7F
(1651527899.900385) can1 068#FC00102F1D438000
(1651527899.902720) can1 1A8#002834772C670000
(1651527899.904827) can1 288#F000000000910091
(1651527899.906488) can1 128#C000000000003F3F
(1651527899.908419) can1 3DD#CC60062711003A1D
(1651527899.912937) can1 308#F000004A0005111B
(1651527899.920282) can1 488#800A000000000000
(1651527899.923940) can1 088#FF0F071889010000
(1651527899.933567) can1 048#FF80308F3A6BA406
(1651527899.942289) can1 028#7E80140000800000
(1651527899.950232) can1 108#DF64631300000000
(1651527899.954325) can1 168#980A00656C008431
(1651527899.958454) can1 1D8#52000000BEC5F341
(1651527899.960827) can1 1E8#2000000000000000
(1651527899.962798) can1 388#D74DC88C00293A40
(1651527899.965002) can1 088#FF10071899010000
(1651527899.968524) can1 208#C0020FA0830838B2
(1651527899.971952) can1 228#10A500C100293A40
(1651527899.977287) can1 3B8#8000000000000000
(1651527899.980761) can1 448#0000FF0000000000
(1651527899.982786) can1 1A8#002834772C670000
(1651527899.993125) can1 1C8#80010F483F012015
(1651527899.995265) can1 248#0080EA42BE4BDF00
(1651527899.998741) can1 268#EB38000004021802
(1651527900.001001) can1 2E8#9800000461293A40
(1651527900.003684) can1 3BC#0380508038000000
(1651527900.007683) can1 068#FC00102F1D438000
(1651527900.010865) can1 088#FF110718A9010000
(1651527900.013273) can1 368#FDC0000800000000
(1651527900.023854) can1 308#F000004A0005111B
(1651527900.025999) can1 2C8#CB00000000007F7F
(1651527900.041131) can1 088#FF130718C9010000
(1651527900.045529) can1 028#7E80140000800000
(1651527900.049653) can1 108#DF64631100000000
(1651527900.051920) can1 168#B88A00656C008431
(1651527900.053817) can1 188#3964644A293A4000
(1651527900.055619) can1 128#C000000000003F3F
(1651527900.057523) can1 048#FE00308F3A6BA406
(1651527900.059682) can1 1D8#92000000BEC5F342
(1651527900.061750) can1 1A8#002834772C670000
(1651527900.063726) can1 1E8#2000000000000000
(1651527900.065657) can1 228#10A500C100293A40
(1651527900.067712) can1 348#7850078042380000
(1651527900.069728) can1 388#F74DC88C00293A40
(1651527900.071740) can1 3C8#C038272000000000
(1651527900.075089) can1 400#1400000000000000
(1651527900.078152) can1 401#084FEE5008680000
(1651527900.082424) can1 402#1400000000000000
(1651527900.087598) can1 208#C0020FA0830838B2
(1651527900.089630) can1 088#FF140718D9010000
(1651527900.093352) can1 268#EB38000004021802
(1651527900.095532) can1 2A8#C000000822E80000
(1651527900.097557) can1 404#124E523837363530
(1651527900.099796) can1 405#124E523837363530
(1651527900.105018) can1 068#FC00102F1D438000
(1651527900.108644) can1 3DD#CC60062711003A1D
(1651527900.111082) can1 248#0080EA42BE4BDF00
(1651527900.115816) can1 505#0802000105000000
(1651527900.120153) can1 3BC#0380508038000000
(1651527900.123673) can1 1C8#80010F483F012015
(1651527900.125797) can1 308#F000004A0005111B
(1651527900.127948) can1 328#E0000000005C0000
(1651527900.131473) can1 088#FF150718E9010000
(1651527900.140234) can1 228#10A500C100293A40
(1651527900.143801) can1 2C8#CB00000000007F7F
(1651527900.147334) can1 1A8#002834772C670000
(1651527900.150822) can1 028#7E80140000800000
(1651527900.154599) can1 108#DF64631500000000
(1651527900.157065) can1 168#980A00656C008431
(1651527900.159267) can1 1D8#52000000BEC5F342
(1651527900.162773) can1 2E8#9800000461293A40
(1651527900.164669) can1 368#FDC0000800000000
(1651527900.166538) can1 1E8#2000000000000000
(1651527900.168509) can1 388#D74DC88C00293A40
(1651527900.170656) can1 3B8#8000000000000000
(1651527900.172664) can1 448#0000FF0000000000
(1651527900.174649) can1 088#FF08071819010000
(1651527900.183051) can1 048#FE00308F3A6BA406
(1651527900.192957) can1 268#EB38000004021802
(1651527900.196715) can1 208#C0020FA0830838B2
(1651527900.204015) can1 068#FC00102F1D438000
(1651527900.206049) can1 088#FF09071829010000
(1651527900.210708) can1 128#C000000000003F3F
(1651527900.217467) can1 228#10A500C100293A40
(1651527900.221177) can1 308#F000004A0005111B
(1651527900.224844) can1 1A8#002834772C670000
(1651527900.228680) can1 248#0080EA42BE4BDF00
(1651527900.231116) can1 288#F000000000910091
(1651527900.240134) can1 028#7E80140000800000
(1651527900.245232) can1 108#DF64631400000000
(1651527900.248802) can1 088#FF0A071839010000
(1651527900.250788) can1 168#B88A00656C008431
(1651527900.253400) can1 188#3964644A293A4000
(1651527900.256919) can1 1C8#80010F483F012015
(1651527900.258993) can1 1D8#D2000000BEC5F343
(1651527900.260655) can1 348#7850078042380000
(1651527900.262713) can1 1E8#2000000000000000
(1651527900.264892) can1 2C8#C900000000007F7F
(1651527900.266959) can1 388#F74DC88C00293A40
(1651527900.269504) can1 3BC#0380508038000000
(1651527900.271778) can1 3C8#C038272000000000
(1651527900.285616) can1 088#FF0C071859010000
(1651527900.289658) can1 268#EB38000004021802
(1651527900.292201) can1 2A8#C000000822E80000
(1651527900.295833) can1 228#10A500C100293A40
(1651527900.299628) can1 048#FE00308F3A6BA406
(1651527900.301617) can1 208#C0020FA0830838B2
(1651527900.304085) can1 068#FC00102F1D438000
(1651527900.310937) can1 1A8#002834772C670000
(1651527900.312840) can1 368#FD80000800000000
(1651527900.314954) can1 2E8#9800000461293A40
(1651527900.316920) can1 3DD#CC60062711003A1D
(1651527900.321181) can1 308#F000004A0005111B
(1651527900.327994) can1 088#FF0D071869010000
(1651527900.330199) can1 508#0B12000008000000
(1651527900.337729) can1 028#7E80140000800000
(1651527900.341717) can1 108#DF64631500000000
(1651527900.344124) can1 168#980A00656C008431
(1651527900.347310) can1 1D8#12000000BEC5F344
(1651527900.350878) can1 388#D74DC88C00293A40
(1651527900.355053) can1 248#0080EA42BE4BDF00
(1651527900.358195) can1 3B8#8000000000000000
(1651527900.361409) can1 448#0000FF0000000000
(1651527900.365732) can1 128#C000000000003F3F
(1651527900.367970) can1 1E8#2000000000000000
(1651527900.372135) can1 088#FF0E071879010000
(1651527900.378550) can1 3BC#0380508038000000
(1651527900.380605) can1 228#10E500C100293A40
(1651527900.384352) can1 1C8#80010F483F012015
(1651527900.388048) can1 2C8#CB00000000007F7F
(1651527900.391773) can1 1A8#002834772C670000
(1651527900.398765) can1 268#EB38000004021802
(1651527900.410088) can1 068#FC00102F1D438000
(1651527900.414723) can1 088#FF10071899010000
(1651527900.418658) can1 208#C0020FA0830838B2
(1651527900.424330) can1 048#FE00308F3A6BA406
(1651527900.427916) can1 308#F000004A0005111B
(1651527900.429802) can1 328#E0000000005C0000
(1651527900.437074) can1 028#7E80140000800000
(1651527900.442610) can1 108#DF64631600000000
(1651527900.444688) can1 168#B88A00656C008431
(1651527900.446712) can1 188#3964644A293A4000
(1651527900.448639) can1 1D8#D2000000BEC5F344
(1651527900.450558) can1 348#7850078042380000
(1651527900.452583) can1 088#FF110718A9010000
(1651527900.454503) can1 388#F74DC88C00293A40
(1651527900.456532) can1 3C8#C038272000000000
(1651527900.458537) can1 368#FDC0000800000000
(1651527900.460387) can1 228#10A500C100293A40
(1651527900.464833) can1 1E8#2000000000000000
(1651527900.468439) can1 1A8#002834772C670000
(1651527900.474665) can1 248#0080EA42BE4BDF00
(1651527900.476649) can1 2E8#9800000461293A40
(1651527900.485020) can1 488#800B000000000000
(1651527900.487229) can1 088#FF120718B9010000
(1651527900.492751) can1 268#EB38000004021802
(1651527900.494713) can1 2A8#C000000822E80000
(1651527900.502295) can1 3BC#0380508038000000
(1651527900.505453) can1 2C8#CB00000000007F7F
(1651527900.508196) can1 068#FC00102F1D438000
(1651527900.510247) can1 3DD#CC60062711003A1D
(1651527900.513527) can1 128#C000000000003F3F
(1651527900.515812) can1 1C8#80010F483F012015
(1651527900.517741) can1 4D8#0000000000000000
(1651527900.522080) can1 308#F000004A0005111B
(1651527900.526593) can1 208#C0020FA0830838B2
(1651527900.528789) can1 3B8#8000000000000000
(1651527900.530777) can1 448#0000FF0000000000
(1651527900.533040) can1 088#FF140718D9010000
(1651527900.534951) can1 028#7E80140000800000
(1651527900.538539) can1 108#DF64631500000000
(1651527900.540548) can1 168#980A00656C008431
(1651527900.542551) can1 1D8#52000000BEC5F344
(1651527900.544422) can1 228#10A500C100293A40
(1651527900.546468) can1 048#FF80308F3A6BA406
(1651527900.548571) can1 388#D74DC88C00293A40
(1651527900.550602) can1 1A8#002834772C670000
(1651527900.558984) can1 288#F000000000910091
(1651527900.563031) can1 1E8#2000000000000000
(1651527900.569414) can1 50B#0C1200000B000000
(1651527900.571846) can1 400#1500000002000000
(1651527900.573850) can1 088#FF150718E9010000
(1651527900.576314) can1 401#0900000000000000
(1651527900.580087) can1 402#1500000002000000
(1651527900.582152) can1 404#0167BEC5F3446006
(1651527900.585635) can1 405#0167BEC5F3444204
(1651527900.595076) can1 268#EB38000004021802
(1651527900.598508) can1 248#0080EA42BE4BDF00
(1651527900.609878) can1 068#FC00102F1D438000
(1651527900.616365) can1 088#FF07071809010000
(1651527900.618513) can1 368#FDC0000800000000
(1651527900.620762) can1 228#10A500C100293A40
(1651527900.625195) can1 308#F000004A0005111B
(1651527900.627586) can1 2C8#C300000000007F7F
(1651527900.629578) can1 1A8#002834772C670000
(1651527900.631984) can1 028#7E80140000800000
(1651527900.637129) can1 108#DF64631600000000
(1651527900.640860) can1 168#B88A00656C008431
(1651527900.642703) can1 188#3964644A293A4000
(1651527900.645063) can1 1D8#92000000BEC5F345
(1651527900.647162) can1 208#C0020FA0830838B2
(1651527900.650609) can1 1C8#80010F483F012015
(1651527900.652797) can1 2E8#9800000461293A40
(1651527900.654786) can1 348#7850078042380000
(1651527900.656730) can1 378#00000000008E2319
(1651527900.658752) can1 088#FF09071829010000
(1651527900.660696) can1 388#F74DC88C00293A40
(1651527900.667113) can1 3BC#0380508038000000
(1651527900.670153) can1 3C8#C038272000000000
(1651527900.676551) can1 128#C000000000003F3F
(1651527900.678541) can1 048#FE00308F3A6BA406
(1651527900.680622) can1 1E8#2000000000000000
(1651527900.693514) can1 088#FF0A071839010000
(1651527900.697676) can1 268#EB38000004021802
(1651527900.702107) can1 2A8#C000000822E80000
(1651527900.704538) can1 228#10A500C100293A40
(1651527900.708745) can1 3B8#8000000000000000
(1651527900.710867) can1 448#0000FF0000000000
(1651527900.712939) can1 068#FC00102F1D438000
(1651527900.714585) can1 1A8#002834772C670000
(1651527900.716567) can1 248#0080EA42BE4BDF00
(1651527900.718953) can1 3DD#CC60062711003A1D
(1651527900.724559) can1 308#F000004A0005111B
(1651527900.726856) can1 328#E0000000005C0000
(1651527900.729125) can1 028#7E80140000800000
(1651527900.735266) can1 088#FF0B071849010000
(1651527900.738801) can1 108#DF64631500000000
(1651527900.741411) can1 168#980A00656C008431
(1651527900.744543) can1 1D8#52000000BEC5F345
(1651527900.747819) can1 388#D74DC88C00293A40
(1651527900.754394) can1 2C8#CB00000000007F7F
(1651527900.758439) can1 208#C0020FA0830838B2
(1651527900.772933) can1 368#FDC0000800000000
(1651527900.779113) can1 1E8#2000000000000000
(1651527900.779114) can1 3BC#0380508038000000
(1651527900.791602) can1 088#FF0D071869010000
(1651527900.799139) can1 1C8#80010F483F012015
(1651527900.805550) can1 50C#0F0200400C000000
(1651527900.808892) can1 228#10A500C100293A40
(1651527900.814696) can1 048#FE00308F3A6BA406
(1651527900.818657) can1 1A8#002834772C670000
(1651527900.827476) can1 268#EB38000004021802
(1651527900.829790) can1 2E8#D800000461293A40
(1651527900.837362) can1 068#FC00102F1D438000
(1651527900.840624) can1 088#FF0E071879010000
(1651527900.842537) can1 128#C000000000003F3F
(1651527900.848930) can1 028#7E80140000800000
(1651527900.854301) can1 108#DF64631600000000
(1651527900.857729) can1 168#980A00656C008431
(1651527900.860725) can1 188#3964644A293A4000
(1651527900.863259) can1 1D8#52000000BEC5F346
(1651527900.866666) can1 248#0080EA42BE4BDF00
(1651527900.869300) can1 308#F000004A0005111B
(1651527900.872615) can1 348#7050078042380000
(1651527900.875005) can1 388#D74DC88C00293A40
(1651527900.877742) can1 3C8#C038272000000000
(1651527900.883854) can1 088#FF0F071889010000
(1651527900.893081) can1 208#C0020FA0830838B2
(1651527900.897684) can1 228#10A500C100293A40
(1651527900.902053) can1 1E8#2000000000000000
(1651527900.904948) can1 2C8#CB00000000007F7F
(1651527900.913898) can1 1A8#002834772C670000
(1651527900.927114) can1 288#F000000000910091
(1651527900.930476) can1 3B8#8000000000000000
(1651527900.940276) can1 3BC#0380508038000000
(1651527900.947190) can1 088#FF110718A9010000
(1651527900.955665) can1 268#EB38000004021802
(1651527900.958904) can1 2A8#C000000822E80000
(1651527900.961991) can1 448#0000FF0000000000
(1651527900.967148) can1 1C8#80010F483F012015
(1651527900.977783) can1 048#FE00308F3A6BA406
(1651527900.980965) can1 068#FC00102E1D438000
(1651527900.983455) can1 368#FDC0000800000000
(1651527900.987191) can1 3DD#CC60062711003A1D
(1651527900.994078) can1 028#7E80140000800000
(1651527901.006310) can1 108#DF64631300000000
(1651527901.011225) can1 168#B88A00656C008431
(1651527901.015361) can1 1D8#D2000000BEC5F346
(1651527901.020493) can1 308#F000004A0005111B
(1651527901.024337) can1 388#F74DC88C00293A40
(1651527901.029449) can1 088#FF120718B9010000
(1651527901.039390) can1 228#10E500C100293A40
(1651527901.046751) can1 1A8#002834772C670000
(1651527901.056738) can1 248#0080EA42BE4BDF00
(1651527901.061998) can1 2E8#9800000461293A40
(1651527901.067164) can1 128#C000000000003F3F
(1651527901.072590) can1 1E8#2000000000000000
(1651527901.079172) can1 208#C0020FA0830838B2
(1651527901.081313) can1 088#FF130718C9010000
(1651527901.097035) can1 2C8#CB00000000007F7F
(1651527901.111111) can1 50F#111200400C000000
(1651527901.111584) can1 268#EB38000004021802
(1651527901.122697) can1 068#FC00102F1D438000
(1651527901.127648) can1 088#FF150718E9010000
(1651527901.132103) can1 028#7E80140000800000
(1651527901.137870) can1 108#DF64631400000000
(1651527901.140922) can1 168#980A00656C008431
(1651527901.144091) can1 188#3964644A293A4000
(1651527901.147983) can1 1D8#12000000BEC5F347
(1651527901.150352) can1 048#FE00308F3A6BA406
(1651527901.154421) can1 228#10A500C100293A40
(1651527901.156873) can1 1A8#002834772C670000
(1651527901.159078) can1 308#F000004A0005111B
(1651527901.162449) can1 328#E0000000005C0000
(1651527901.164634) can1 1C8#80010F483F012015
(1651527901.166998) can1 348#7850078042380000
(1651527901.169056) can1 388#D74DC88C00293A40
(1651527901.171373) can1 3BC#0380508038000000
(1651527901.174602) can1 3C8#C038272000000000
(1651527901.179905) can1 488#800C000000000000
(1651527901.182269) can1 088#FF07071809010000
(1651527901.188703) can1 368#FDC0000800000000
(1651527901.193153) can1 1E8#2000000000000000
(1651527901.196647) can1 3B8#8000000000000000
(1651527901.198664) can1 448#0000FF0000000000
(1651527901.200793) can1 400#1600000100000001
(1651527901.202754) can1 401#0A00000000000000
(1651527901.204821) can1 248#0080EA42BE4BDF00
(1651527901.206677) can1 402#1600000100000001
(1651527901.208485) can1 208#C0020FA0830838B2
(1651527901.212448) can1 404#023A36002F041F6C
(1651527901.214405) can1 405#023A36002F041F6C
(1651527901.219971) can1 088#FF08071819010000
(1651527901.225030) can1 268#EB38000004021802
(1651527901.228524) can1 2A8#C000000822E80000
(1651527901.230471) can1 228#10A500C100293A40
(1651527901.234516) can1 2C8#CB00000000007F7F
(1651527901.237973) can1 068#FC00102F1D438000
(1651527901.239762) can1 1A8#002834772C670000
(1651527901.241820) can1 028#7E80140000800000
(1651527901.247767) can1 108#DF64631400000000
(1651527901.250016) can1 128#C000000000003F3F
(1651527901.253399) can1 168#B88A00656C008431
(1651527901.255668) can1 1D8#D2000000BEC5F347
(1651527901.258016) can1 2E8#9800000461293A40
(1651527901.261628) can1 308#F000004A0005111B
(1651527901.264258) can1 388#F74DC88C00293A40
(1651527901.267811) can1 3DD#CC60062710003A1D
(1651527901.269906) can1 088#FF0A071839010000
(1651527901.281093) can1 048#FF80308F3A6BA406
(1651527901.283068) can1 3BC#0380508038000000
(1651527901.295188) can1 1E8#2000000000000000
(1651527901.298839) can1 1C8#80010F483F012015
(1651527901.302972) can1 088#FF0B071849010000
(1651527901.311665) can1 228#10A500C100293A40
(1651527901.317833) can1 208#C0020FA0830838B2
(1651527901.320769) can1 1A8#002834772C670000
(1651527901.339170) can1 268#EB38000004021802
(1651527901.342418) can1 248#0080EA42BE4BDF00
(1651527901.347559) can1 288#F000000000910091
(1651527901.353903) can1 028#7E80140000800000
(1651527901.367127) can1 068#FC00102F1D438000
(1651527901.371777) can1 088#FF0C071859010000
(1651527901.375016) can1 108#DF64631400000000
(1651527901.378565) can1 168#980A00656C008431
(1651527901.382457) can1 188#3964644A293A4000
(1651527901.386739) can1 1D8#52000000BEC5F348
(1651527901.391054) can1 348#7850078042380000
(1651527901.399209) can1 368#FD80000800000000
(1651527901.403677) can1 2C8#CB00000000007F7F
(1651527901.406710) can1 308#F000004A0005111B
(1651527901.410465) can1 388#D74DC88C00293A40
(1651527901.413701) can1 3C8#C038272000000000
(1651527901.417350) can1 511#1302000111000003
(1651527901.435434) can1 3B8#8000000000000000
(1651527901.438620) can1 448#0000FF0000000000
(1651527901.443113) can1 088#FF0E071879010000
(1651527901.448730) can1 228#10A500C100293A40
(1651527901.455059) can1 128#C000000000003F3F
(1651527901.458306) can1 048#FE00308F3A6BA406
(1651527901.463166) can1 1E8#2000000000000000
(1651527901.467619) can1 1A8#002834772C670000
(1651527901.473469) can1 3BC#0380508038000000
(1651527901.476926) can1 2E8#9800000461293A40
(1651527901.487040) can1 088#FF0F071889010000
(1651527901.496175) can1 1C8#80010F483F012015
(1651527901.499099) can1 268#EB38000004021802
(1651527901.502669) can1 208#C0020FA0830838B2
(1651527901.504862) can1 2A8#C000000822E80000
(1651527901.507033) can1 028#7E80140000800000
(1651527901.512857) can1 108#DF64631300000000
(1651527901.515082) can1 168#B88A00656C008431
(1651527901.518741) can1 068#FC00102F1D438000
(1651527901.521553) can1 1D8#92000000BEC5F348
(1651527901.525054) can1 388#F74DC88C00293A40
(1651527901.527694) can1 248#0080EA42BE4BDF00
(1651527901.529975) can1 3DD#CC60062710003A1D
(1651527901.535637) can1 308#F000004A0005111B
(1651527901.537913) can1 328#E0000000005C0000
(1651527901.541350) can1 088#FF10071899010000
(1651527901.548080) can1 228#10A500C100293A40
(1651527901.553785) can1 2C8#CB00000000007F7F
(1651527901.557273) can1 1A8#002834772C670000
(1651527901.565143) can1 368#FDC0000800000000
(1651527901.570798) can1 1E8#2000000000000000
(1651527901.578354) can1 088#FF120718B9010000
(1651527901.588927) can1 048#FE00308F3A6BA406
(1651527901.595666) can1 268#EB38000004021802
(1651527901.600546) can1 028#7E80140000800000
(1651527901.604487) can1 108#DF64631400000000
(1651527901.606504) can1 168#980A00656C008431
(1651527901.609026) can1 188#3964644A293A4000
(1651527901.612419) can1 1D8#52000000BEC5F349
(1651527901.614456) can1 068#FC00102F1D438000
(1651527901.616762) can1 088#FF130718C9010000
(1651527901.618929) can1 128#C000000000003F3F
(1651527901.621043) can1 208#C0020FA0830838B2
(1651527901.624987) can1 228#10A500C100293A40
(1651527901.627021) can1 348#7850078042380000
(1651527901.630341) can1 388#D74DC88C00293A40
(1651527901.633638) can1 3BC#0380508038000000
(1651527901.636185) can1 1C8#80010F483F012015
(1651527901.638049) can1 308#F000004A0005111B
(1651527901.641551) can1 3B8#8000000000000000
(1651527901.644054) can1 1A8#002834772C670000
(1651527901.650019) can1 248#0080EA42BE4BDF00
(1651527901.652145) can1 2E8#9800000461293A40
(1651527901.653850) can1 3C8#C038272000000000
(1651527901.655932) can1 448#0000FF0000000000
(1651527901.663251) can1 513#0102100013000001
(1651527901.666656) can1 088#FF140718D9010000
(1651527901.677580) can1 1E8#2000000000000000
(1651527901.680120) can1 2C8#CB00000000007F7F
(1651527901.695217) can1 088#FF07071809010000
(1651527901.701185) can1 268#EB38000004021802
(1651527901.704748) can1 028#7E80140000800000
(1651527901.710575) can1 108#DF64631000000000
(1651527901.712750) can1 168#B88A00656C008431
(1651527901.714952) can1 1D8#D2000000BEC5F349
(1651527901.717298) can1 048#FE00308F3A6BA406
(1651527901.721042) can1 228#10A500C100293A40
(1651527901.724798) can1 068#FC00102F1D438000
(1651527901.727045) can1 1A8#002834772C670000
(1651527901.730773) can1 2A8#C000000822E80000
(1651527901.733307) can1 368#FDC0000800000000
(1651527901.736058) can1 208#C0020FA0830838B2
(1651527901.738587) can1 388#F64DC88C00293A40
(1651527901.741075) can1 3DD#CC60062710003A1D
(1651527901.746139) can1 308#F000004A0005111B
(1651527901.750039) can1 288#F000000000910091
(1651527901.755253) can1 3BC#0380508038000000
(1651527901.759200) can1 088#FF08071819010000
(1651527901.774407) can1 1C8#80010F483F012015
(1651527901.777021) can1 248#0080EA42BE4BDF00
(1651527901.784469) can1 128#C000000000003F3F
(1651527901.786572) can1 1E8#2000000000000000
(1651527901.790414) can1 400#1702000200000000
(1651527901.792966) can1 088#FF09071829010000
(1651527901.795015) can1 401#0B00000000000000
(1651527901.798646) can1 402#1702000200000000
(1651527901.801251) can1 404#2000000000000000
(1651527901.805278) can1 228#10E500C100293A40
(1651527901.808286) can1 405#2000000000000000
(1651527901.812251) can1 2C8#CB00000000007F7F
(1651527901.816339) can1 1A8#002834772C670000
(1651527901.821950) can1 028#7E80140000800000
(1651527901.826651) can1 108#DF64631100000000
(1651527901.829067) can1 168#980A00656C008431
(1651527901.833221) can1 188#3964644A293A4000
(1651527901.836013) can1 1D8#12000000BEC5F34A
(1651527901.838230) can1 268#EB38000004021802
(1651527901.841796) can1 2E8#9800000461293A40
(1651527901.844338) can1 348#7850078042380000
(1651527901.847878) can1 068#FC00102F1D438000
(1651527901.850194) can1 088#FF0B071849010000
(1651527901.853726) can1 388#D64DC88C00293A40
(1651527901.856121) can1 3B8#8000000000000000
(1651527901.860087) can1 3C8#C038272000000000
(1651527901.863764) can1 448#0000FF0000000000
(1651527901.866629) can1 488#800D000000000000
(1651527901.872704) can1 048#FE00308F3A6BA406
(1651527901.875784) can1 208#C0020FA0830838B2
(1651527901.878090) can1 308#F000004A0005131B
(1651527901.881229) can1 328#E0000000005C0000
(1651527901.894054) can1 088#FF0C071859010000
(1651527901.902117) can1 228#10A500C100293A40
(1651527901.905468) can1 3BC#0380508038000000
(1651527901.908147) can1 368#FDC0000800000000
(1651527901.913192) can1 1E8#2000000000000000
(1651527901.918145) can1 1A8#002834772C670000
(1651527901.924069) can1 248#0080EA42BE4BDF00
(1651527901.931471) can1 1C8#80010F483F012015
(1651527901.934983) can1 028#7E80140000800000
(1651527901.940303) can1 088#FF0D071869010000
(1651527901.945965) can1 108#DF64631400000000
(1651527901.948123) can1 168#B88A00656C008431
(1651527901.951757) can1 1D8#D2000000BEC5F34A
(1651527901.953865) can1 268#EB38000004021802
(1651527901.956248) can1 2A8#C000000822E80000
(1651527901.960278) can1 388#F64DC88C00293A40
(1651527901.964308) can1 2C8#CB00000000007F7F
(1651527901.968177) can1 501#0302100013000001
(1651527901.971800) can1 068#FC00102F1D438000
(1651527901.974152) can1 3DD#CC60062710003A1D
(1651527901.977738) can1 128#C000000000003F3F
(1651527901.987376) can1 308#F000004A8005131B
(1651527901.993336) can1 088#FF0F071889010000
(1651527901.998763) can1 228#10A500C100293A40
(1651527902.001841) can1 208#C0020FA0830838B2
(1651527902.006338) can1 048#FF80308F3A6BA406
(1651527902.011624) can1 1A8#002834772C670000
(1651527902.017831) can1 2E8#9800000461293A40
(1651527902.025723) can1 1E8#2000000000000000
(1651527902.030362) can1 088#FF10071899010000
(1651527902.039055) can1 028#7E80140000800000
(1651527902.044557) can1 108#DF64631200000000
(1651527902.046579) can1 168#980A00656C008431
(1651527902.049158) can1 188#3964644A293A4000
(1651527902.053490) can1 1D8#52000000BEC5F34B
(1651527902.056183) can1 248#0080EA42BE4BDF00
(1651527902.058562) can1 268#EB38000004021802
(1651527902.060876) can1 348#7850078042380000
(1651527902.063576) can1 388#864DC88C00293A40
(1651527902.066168) can1 3B8#8000000000000000
(1651527902.069371) can1 3BC#0380508038000000
(1651527902.073011) can1 3C8#C038272000000000
(1651527902.075998) can1 068#FC00102E1D438000
(1651527902.077894) can1 088#FF110718A9010000
(1651527902.081146) can1 368#FDC0000800000000
(1651527902.084654) can1 448#0000FF0000000000
(1651527902.088799) can1 1C8#80010F483F012015
(1651527902.091716) can1 228#10A500C100293A40
(1651527902.095280) can1 2C8#CB00000000007F7F
(1651527902.097801) can1 308#F000004A8005131B
(1651527902.100343) can1 1A8#002834772C670000
(1651527902.111168) can1 208#C0020FA0830838B2
(1651527902.118514) can1 088#FF130718C9010000
(1651527902.120866) can1 288#F000000000910091
(1651527902.128186) can1 128#C000000000003F3F
(1651527902.130472) can1 048#FE00388F3A6BA406
(1651527902.132847) can1 1E8#2000000000000000
(1651527902.141192) can1 028#7E80140000800000
(1651527902.146043) can1 108#DF64631300000000
(1651527902.149572) can1 168#B88A00656C008431
(1651527902.152340) can1 1D8#92000000BEC5F34B
(1651527902.155838) can1 388#F64DC88C00293A40
(1651527902.158317) can1 088#FF140718D9010000
(1651527902.163815) can1 268#EB38000004021802
(1651527902.165801) can1 2A8#C000000822E80000
(1651527902.167917) can1 228#10A500C100293A40
(1651527902.174222) can1 068#FC01102F1D438000
(1651527902.177499) can1 1A8#002834772C670000
(1651527902.181805) can1 2E8#D800000461293A40
(1651527902.183969) can1 248#0080EA42BE4BDF00
(1651527902.185986) can1 3BC#0380508038000000
(1651527902.189003) can1 3DD#CC60062710003A1D
(1651527902.192318) can1 503#0402100013000001
(1651527902.195733) can1 308#F000004A8005131B
(1651527902.197576) can1 328#E0000000005C0000
(1651527902.201062) can1 088#FF150718E9010000
(1651527902.212859) can1 2C8#C300000000007F7F
(1651527902.214872) can1 1C8#80010F483F012015
(1651527902.221751) can1 208#C0020FA0830838B2
(1651527902.223843) can1 368#FDC0000800000000
(1651527902.229142) can1 1E8#2000000000000000
(1651527902.231368) can1 3B8#8000000000000000
(1651527902.234691) can1 448#0000FF0000000000
(1651527902.236820) can1 088#FF08071819010000
(1651527902.240398) can1 028#7E80140000800000
(1651527902.245886) can1 108#DF64631500000000
(1651527902.248947) can1 168#980A00656C008431
(1651527902.252680) can1 188#3964644A293A4000
(1651527902.254651) can1 1D8#52000000BEC5F34C
(1651527902.258101) can1 048#FE00388F3A6BA406
(1651527902.260801) can1 228#10A500C100293A40
(1651527902.264508) can1 1A8#002834772C670000
(1651527902.269990) can1 268#EB38000004021802
(1651527902.279273) can1 348#7850078042380000
(1651527902.280612) can1 388#D64DC88C00293A40
(1651527902.283453) can1 3C8#C038272000000000
(1651527902.293088) can1 068#FC01102E1D438000
(1651527902.295182) can1 088#FF09071829010000
(1651527902.299586) can1 128#C000000000003F3F
(1651527902.308873) can1 308#F000004A8005131B
(1651527902.316554) can1 248#0080EA42BE4BDF00
(1651527902.328688) can1 3BC#0380508038000000
(1651527902.334599) can1 088#FF0A071839010000
(1651527902.340011) can1 228#10A500C100293A40
(1651527902.348162) can1 1E8#2000000000000000
(1651527902.352494) can1 2C8#CB00000000007F7F
(1651527902.357575) can1 208#C0020FA0830838B2
(1651527902.361555) can1 1A8#002834772C670000
(1651527902.367210) can1 028#7E80140000800000
(1651527902.374428) can1 108#DF64631200000000
(1651527902.379139) can1 168#B88A00656C008431
(1651527902.383085) can1 1C8#80010F483F012015
(1651527902.395419) can1 1D8#D2000000BEC5F34C
(1651527902.399216) can1 2E8#9800000461293A40
(1651527902.407768) can1 388#F64DC88C00293A40
(1651527902.412856) can1 400#1800000000010000
(1651527902.419213) can1 401#0C00000000000000
(1651527902.423351) can1 088#FF0C071859010000
(1651527902.433723) can1 268#EB38000004021802
(1651527902.437364) can1 2A8#C000000822E80000
(1651527902.442521) can1 402#1800000000010000
(1651527902.446123) can1 404#2100000000000000
(1651527902.453071) can1 048#FE00388F3A6BA406
(1651527902.459263) can1 405#2100000000000000
(1651527902.465451) can1 068#FC01102E1D438000
(1651527902.472181) can1 368#FDC0000800000000
(1651527902.475184) can1 3DD#CC60062710003A1D
(1651527902.483786) can1 308#F000004A8005131B
(1651527902.490116) can1 088#FF0D071869010000
(1651527902.505237) can1 228#10E500C100293A40
(1651527902.510087) can1 504#0502000304000000
(1651527902.520762) can1 3B8#8000000000000000
(1651527902.531147) can1 1A8#002834772C670000
(1651527902.535204) can1 448#0000FF0000000000
(1651527902.541962) can1 248#0080EA42BE4BDF00
(1651527902.546130) can1 128#C000000000003F3F
(1651527902.555146) can1 1E8#2000000000000000
(1651527902.563276) can1 028#7E80140000800000
(1651527902.575196) can1 088#FF0E071879010000
(1651527902.581304) can1 108#DF64631400000000
(1651527902.588289) can1 168#980A00656C008431
(1651527902.592373) can1 188#3964644A293A4000
(1651527902.596788) can1 1D8#12000000BEC5F34D
(1651527902.601542) can1 208#C0020FA0830838B2
(1651527902.604937) can1 288#F000000000910091
(1651527902.607533) can1 348#7850078042380000
(1651527902.617076) can1 2C8#CB00000000007F7F
(1651527902.617118) can1 388#D64DC88C00293A40
(1651527902.619213) can1 3BC#0380508038000000
(1651527902.631121) can1 268#EB38000004021802
(1651527902.639408) can1 3C8#C038272000000000
(1651527902.659141) can1 488#800E000000000000
(1651527902.667243) can1 1C8#80010F483F012015
(1651527902.670837) can1 068#FC01102E1D438000
(1651527902.675121) can1 088#FF10071899010000
(1651527902.679346) can1 228#10A500C100293A40
(1651527902.687474) can1 048#FE00388F3A6BA406
(1651527902.691123) can1 308#F000004A8005131B
(1651527902.696468) can1 1A8#002834762C620000
(1651527902.703129) can1 328#E0000000005C0000
(1651527902.718465) can1 2E8#9800000461293A40
(1651527902.734367) can1 088#FF110718A9010000
(1651527902.736460) can1 368#FDC0000800000000
(1651527902.740397) can1 028#7E80140000800000
(1651527902.755088) can1 108#DF64631400000000
(1651527902.759089) can1 168#B88A00656C008431
(1651527902.763479) can1 1D8#D2000000BEC5F34D
(1651527902.771251) can1 1E8#2000000000000000
(1651527902.773845) can1 388#F64DC88C00293A40
(1651527902.776544) can1 248#0080EA42BE4BDF00
(1651527902.784967) can1 208#C0020FA0830838B2
(1651527902.789117) can1 088#FF120718B9010000
(1651527902.799142) can1 268#EB38000004021802
(1651527902.807717) can1 228#10A500C100293A40
(1651527902.812033) can1 2A8#C000000822E80000
(1651527902.819521) can1 3BC#037F508038000000
(1651527902.825040) can1 2C8#C900000000007F7F
(1651527902.830939) can1 068#FC01102E1D438000
(1651527902.835093) can1 1A8#002834762C620000
(1651527902.837015) can1 3DD#CC60062710003A1D
(1651527902.845773) can1 128#C000000000003F3F
(1651527902.853389) can1 308#F000004A8005131B
(1651527902.859120) can1 3B8#8000000000000000
(1651527902.867160) can1 088#FF140718D9010000
(1651527902.872987) can1 448#0000FF0000000000
(1651527902.875477) can1 1C8#80010F483F012015
(1651527902.883589) can1 048#FF80388F3A6BA406
(1651527902.891212) can1 505#0802000305000000
(1651527902.899092) can1 028#7E80140000800000
(1651527902.910495) can1 108#DF64631000000000
(1651527902.913614) can1 168#980A00656C008431
(1651527902.917342) can1 188#3964644A293A4000
(1651527902.920925) can1 1D8#52000000BEC5F34D
(1651527902.923785) can1 1E8#2000000000000000
(1651527902.926664) can1 088#FF150718E9010000
(1651527902.929182) can1 348#7850078042380000
(1651527902.934375) can1 228#10A500C100293A40
(1651527902.942913) can1 388#D64DC88C00293A40
(1651527902.942945) can1 3C8#C038272000000000
(1651527902.949745) can1 1A8#002834762C620000
(1651527902.962475) can1 268#EB38000004021802
(1651527902.970715) can1 248#0080EA42BE4BDF00
(1651527902.975908) can1 208#C0020FA0830838B2
(1651527902.983178) can1 2E8#9800000461293A40
(1651527902.987495) can1 068#FC01102E1D438000
(1651527902.992105) can1 088#FF07071809010000
(1651527902.995965) can1 368#FD80000800000000
(1651527903.015240) can1 2C8#CB00000000007F7F
(1651527903.020865) can1 308#F000004A8005131B
(1651527903.024781) can1 3BC#037F508038000000
(1651527903.038942) can1 088#FF09071829010000
(1651527903.047746) can1 228#10A500C100293A40
(1651527903.051148) can1 028#7E80140000800000
(1651527903.056563) can1 108#DF64631200000000
(1651527903.059648) can1 168#B88A00656C008431
(1651527903.067993) can1 128#C000000000003F3F
(1651527903.073126) can1 048#FE00388F3A6BA406
(1651527903.077622) can1 1C8#80010F483F012015
(1651527903.083154) can1 1A8#002834752C5F0000
(1651527903.085951) can1 1D8#92000000BEC5F34E
(1651527903.088093) can1 1E8#2000000000000000
(1651527903.090329) can1 388#F64DC88C00293A40
(1651527903.102574) can1 088#FF0A071839010000
(1651527903.107372) can1 268#EB38000004021802
(1651527903.109791) can1 2A8#C000000822E80000
(1651527903.112856) can1 288#F000000000910091
(1651527903.118731) can1 208#C0020FA0830838B2
(1651527903.121105) can1 068#FC01102E1D438000
(1651527903.123027) can1 3B8#8000000000000000
(1651527903.126507) can1 3DD#CC60062710003A1D
(1651527903.128900) can1 448#0000FF0000000000
(1651527903.131205) can1 248#0080EA42BE4BDF00
(1651527903.139805) can1 308#F000004A8005131B
(1651527903.141992) can1 328#E0000000005C0000
(1651527903.147311) can1 088#FF0B071849010000
(1651527903.151736) can1 228#10A500C100293A40
(1651527903.158868) can1 2C8#CB00000000007F7F
(1651527903.162339) can1 1A8#002834752C5F0000
(1651527903.166324) can1 2E8#9800000461293A40
(1651527903.169869) can1 028#7E80140000800000
(1651527903.175585) can1 108#DF64631200000000
(1651527903.177581) can1 168#980A00656C008431
(1651527903.179699) can1 188#3964644A293A4000
(1651527903.181810) can1 1D8#52000000BEC5F34F
(1651527903.183981) can1 348#7850078042380000
(1651527903.187410) can1 1E8#2000000000000000
(1651527903.189533) can1 368#FDC0000800000000
(1651527903.191634) can1 378#00000000008E231A
(1651527903.193599) can1 088#FF0D071869010000
(1651527903.195773) can1 388#D64DC88C00293A40
(1651527903.197867) can1 3BC#037F507F38000000
(1651527903.199782) can1 3C8#C038272000000000
(1651527903.202270) can1 400#1900000102010102
(1651527903.206101) can1 401#0D00000000000000
(1651527903.212665) can1 402#1900000102010102
(1651527903.215851) can1 048#FE00388F3A6BA406
(1651527903.217070) can1 404#0167BEC5F34E6006
(1651527903.221809) can1 268#EB38000004021802
(1651527903.224158) can1 405#0167BEC5F34E4204
(1651527903.227690) can1 1C8#80010F483F012015
(1651527903.229647) can1 4D8#0000000000000000
(1651527903.231929) can1 508#0B12000008000000
(1651527903.237000) can1 068#FC01102E1D438000
(1651527903.240485) can1 088#FF0E071879010000
(1651527903.242456) can1 128#C000000000003F3F
(1651527903.248528) can1 208#C0020FA0830838B2
(1651527903.251713) can1 228#10A500C100293A40
(1651527903.257832) can1 308#F000004A8005131B
(1651527903.262885) can1 1A8#002834752C5C0000
(1651527903.269375) can1 248#0080EA42BE4BDF00
(1651527903.277719) can1 028#7E80140000800000
(1651527903.283224) can1 088#FF0F071889010000
(1651527903.288007) can1 108#DF64631300000000
(1651527903.291590) can1 168#B88A00656C008431
(1651527903.294960) can1 1D8#D2000000BEC5F34F
(1651527903.297625) can1 388#F64DC88C00293A40
(1651527903.303977) can1 2C8#C300000000007F7F
(1651527903.306979) can1 1E8#2000000000000000
(1651527903.320209) can1 3BC#037F507F38000000
(1651527903.325435) can1 3B8#8000000000000000
(1651527903.328026) can1 448#0000FF0000000000
(1651527903.331772) can1 088#FF110718A9010000
(1651527903.337709) can1 228#10A500C100293A40
(1651527903.339985) can1 268#EB38000004021802
(1651527903.343688) can1 2A8#C000000822E80000
(1651527903.348220) can1 048#FE00388F3A6BA406
(1651527903.352925) can1 068#FC01102E1D438000
(1651527903.355836) can1 1A8#002834752C5C0000
(1651527903.361269) can1 2E8#9800000461293A40
(1651527903.364647) can1 368#FDC0000800000000
(1651527903.366653) can1 3DD#CC60062710003A1D
(1651527903.371585) can1 308#F000004A8005131B
(1651527903.373553) can1 1C8#80010F483F012015
(1651527903.375940) can1 208#C0020FA0830838B2
(1651527903.377883) can1 488#800F000000000000
(1651527903.379723) can1 088#FF120718B9010000
(1651527903.386879) can1 028#7E80140000800000
(1651527903.390880) can1 108#DF64631200000000
(1651527903.394169) can1 168#980A00656C008431
(1651527903.397532) can1 188#7964644A293A4000
(1651527903.400027) can1 1D8#52000000BEC5F350
(1651527903.403840) can1 348#7850078042380000
(1651527903.405830) can1 248#0080EA42BE4BDF00
(1651527903.407964) can1 388#D64DC88C00293A40
(1651527903.410010) can1 3C8#C038272000000000
(1651527903.414582) can1 128#C000000000003F3F
(1651527903.416519) can1 1E8#2000000000000000
(1651527903.420309) can1 088#FF130718C9010000
(1651527903.424148) can1 228#10E500C100293A40
(1651527903.432647) can1 2C8#CB00000000007F7F
(1651527903.436098) can1 1A8#002834752C5C0000
(1651527903.441483) can1 268#EB38000004021802
(1651527903.452012) can1 068#FC01102E1D438000
(1651527903.454264) can1 088#FF150718E9010000
(1651527903.457659) can1 3BC#037F507F38000000
(1651527903.465470) can1 50B#0C1200000B000000
(1651527903.467968) can1 048#FE00388F3A6BA406
(1651527903.469970) can1 308#F000004A8005131B
(1651527903.473281) can1 328#E0000000005C0000
(1651527903.478493) can1 288#F000000000910091
(1651527903.482463) can1 208#C0020FA0830838B2
(1651527903.484590) can1 028#7E80140000800000
(1651527903.489163) can1 108#DF64631300000000
(1651527903.491532) can1 168#B88A00656C008431
(1651527903.493542) can1 1D8#92000000BEC5F350
(1651527903.495717) can1 388#F64DC88C00293A40
(1651527903.497838) can1 088#FF07071809010000
(1651527903.501084) can1 228#10A500C100293A40
(1651527903.505135) can1 1C8#80010F483F012015
(1651527903.507243) can1 368#FDC0000800000000
(1651527903.513199) can1 1E8#2000000000000000
(1651527903.517113) can1 3B8#8000000000000000
(1651527903.521858) can1 1A8#002834752C5C0000
(1651527903.527750) can1 2E8#D800000461293A40
(1651527903.529965) can1 448#0000FF0000000000
(1651527903.532991) can1 248#0080EA42BE4BDF00
(1651527903.543065) can1 088#FF08071819010000
(1651527903.550247) can1 268#EB38000004021802
(1651527903.553596) can1 2A8#C000000822E80000
(1651527903.562446) can1 2C8#CB00000000007F7F
(1651527903.566377) can1 068#FC01102E1D438000
(1651527903.570384) can1 3DD#CC60062710003A1D
(1651527903.573827) can1 128#C000000000003F3F
(1651527903.581487) can1 308#F000004A8005131B
(1651527903.586547) can1 088#FF0A071839010000
(1651527903.590596) can1 228#10A500C100293A40
(1651527903.592921) can1 028#7E80140000800000
(1651527903.597046) can1 108#DF64630E00000000
(1651527903.598932) can1 168#980A00656C008431
(1651527903.602207) can1 188#3964644A293A4000
(1651527903.605354) can1 1D8#52000000BEC5F350
(1651527903.608780) can1 048#FF80388F3A6BA406
(1651527903.610669) can1 1A8#002834752C5A0000
(1651527903.612913) can1 208#C0020FA0830838B2
(1651527903.614995) can1 348#7850077F42380000
(1651527903.618192) can1 388#D64DC88C00293A40
(1651527903.621304) can1 3BC#037F507F38000000
(1651527903.624779) can1 3C8#C038272000000000
(1651527903.629171) can1 1E8#2000000000000000
(1651527903.636485) can1 088#FF0B071849010000
(1651527903.645972) can1 1C8#80010F483F012015
(1651527903.652693) can1 268#EB38000004021802
(1651527903.656435) can1 248#0080EA42BE4BDF00
(1651527903.666052) can1 068#FC01102E1D438000
(1651527903.669247) can1 088#FF0C071859010000
(1651527903.672762) can1 368#FDC0000800000000
(1651527903.674798) can1 228#10A500C100293A40
(1651527903.681271) can1 2C8#CB00000000007F7F
(1651527903.684986) can1 308#F000004A8005131B
(1651527903.687038) can1 1A8#002834752C5A0000
(1651527903.690372) can1 2E8#9800000461293A40
(1651527903.694270) can1 028#7E80140000800000
(1651527903.699477) can1 108#DF64631100000000
(1651527903.701773) can1 168#B88A00656C008431
(1651527903.704037) can1 1D8#D2000000BEC5F351
(1651527903.706011) can1 388#F64DC88C00293A40
(1651527903.709126) can1 50C#0F0200400C000000
(1651527903.712723) can1 3B8#8000000000000000
(1651527903.714697) can1 448#0000FF0000000000
(1651527903.716613) can1 088#FF0E071879010000
(1651527903.721075) can1 208#C0020FA0830838B2
(1651527903.729465) can1 128#C000000000003F3F
(1651527903.731621) can1 048#FE00388F3A6BA406
(1651527903.733721) can1 1E8#2000000000000000
(1651527903.736032) can1 3BC#037F507F38000000
(1651527903.738256) can1 400#1A00010000000000
(1651527903.741413) can1 401#0E00000000000000
(1651527903.743851) can1 402#1A00010000000000
(1651527903.746012) can1 404#023A36002E041F6C
(1651527903.749388) can1 405#023A36002E041F6C
(1651527903.755686) can1 088#FF0F071889010000
(1651527903.759861) can1 228#10A500C100293A40
(1651527903.763975) can1 268#EB38000004021802
(1651527903.765838) can1 2A8#C000000822E80000
(1651527903.772927) can1 068#FC01102E1D438000
(1651527903.775035) can1 1A8#002834742C590000
(1651527903.776881) can1 3DD#CC60062710003A1D
(1651527903.780477) can1 1C8#80010F483F012015
(1651527903.782570) can1 248#0080EA42BE4BDF00
(1651527903.786972) can1 308#F000004A8005131B
(1651527903.789423) can1 328#E0000000005C0000
(1651527903.792177) can1 028#7E80140000800000
(1651527903.794944) can1 088#FF10071899010000
(1651527903.801331) can1 108#DF64631100000000
(1651527903.804684) can1 168#980A00656C008431
(1651527903.806761) can1 188#3964644A293A4000
(1651527903.808944) can1 1D8#12000000BEC5F351
(1651527903.810906) can1 348#7850077F42380000
(1651527903.812645) can1 388#D64DC88C00293A40
(1651527903.814682) can1 2C8#CB00000000007F7F
(1651527903.816694) can1 3C8#C038272000000000
(1651527903.824285) can1 368#FDC0000800000000
(1651527903.829729) can1 288#F000000000910091
(1651527903.831924) can1 1E8#2000000000000000
(1651527903.833787) can1 208#C0020FA0830838B2
(1651527903.837022) can1 088#FF120718B9010000
(1651527903.840454) can1 228#10A500C100293A40
(1651527903.848139) can1 048#FE00388F3A6BA406
(1651527903.851719) can1 1A8#002834742C590000
(1651527903.858338) can1 268#EB38000004021802
(1651527903.860812) can1 2E8#9800000461293A40
(1651527903.864501) can1 3BC#037F507F38000000
(1651527903.870699) can1 068#FC01102E1D438000
(1651527903.873236) can1 088#FF130718C9010000
(1651527903.876560) can1 128#C000000000003F3F
(1651527903.883994) can1 028#7E80140000800000
(1651527903.889337) can1 108#DF64631300000000
(1651527903.893002) can1 168#980A00656C008431
(1651527903.895944) can1 1D8#52000000BEC5F352
(1651527903.900184) can1 308#F000004A8005131B
(1651527903.902289) can1 388#D64DC88C00293A40
(1651527903.905378) can1 3B8#8000000000000000
(1651527903.908813) can1 248#0080EA42BE4BDF00
(1651527903.910895) can1 448#0000FF0000000000
(1651527903.916038) can1 1C8#80010F483F012015
(1651527903.919985) can1 088#FF140718D9010000
(1651527903.922711) can1 228#10A500C100293A40
(1651527903.928264) can1 50F#111200400C000000
(1651527903.935038) can1 2C8#C800000000007F7F
(1651527903.938958) can1 1E8#2000000000000000
(1651527903.941215) can1 1A8#002834742C590000
(1651527903.948079) can1 208#C0020FA0830838B2
(1651527903.959722) can1 488#8000FFFFFFFF00FF
(1651527903.961899) can1 088#FF07071809010000
(1651527903.967755) can1 268#EB38000004021802
(1651527903.969720) can1 2A8#C000000822E80000
(1651527903.975006) can1 048#FE00388F3A6BA406
(1651527903.979584) can1 068#FC01102E1D438000
(1651527903.981546) can1 368#FDC0000800000000
(1651527903.983799) can1 3DD#CC60062710003A1D
(1651527903.988489) can1 028#7E80140000800000
(1651527903.992712) can1 108#DF64631300000000
(1651527903.994780) can1 168#B88A00656C008431
(1651527903.997004) can1 188#3964644A293A4000
(1651527903.998668) can1 1D8#D2000000BEC5F352
(1651527904.001016) can1 308#F000004A8005131B
(1651527904.003142) can1 088#FF08071819010000
(1651527904.006660) can1 228#10E500C100293A40
(1651527904.008701) can1 348#7850077F42380000
(1651527904.010710) can1 388#F64DC88C00293A40
(1651527904.012731) can1 3BC#037F507F38000000
(1651527904.014778) can1 3C8#C038272000000000
(1651527904.020317) can1 1A8#002834742C580000
(1651527904.023783) can1 2E8#9800000461293A40
(1651527904.028918) can1 248#0080EA42BE4BDF00
(1651527904.034252) can1 128#C000000000003F3F
(1651527904.038280) can1 1E8#2000000000000000
(1651527904.043730) can1 088#FF09071829010000
(1651527904.049003) can1 1C8#80010F483F012015
(1651527904.057103) can1 2C8#C300000000007F7F
(1651527904.059422) can1 208#C0020FA0830838B2
(1651527904.066576) can1 268#EB38000004021802
(1651527904.075403) can1 3B8#8000000000000000
(1651527904.077735) can1 068#FC01102E1D438000
(1651527904.080715) can1 088#FF0B071849010000
(1651527904.083172) can1 228#10A500C100293A40
(1651527904.087289) can1 448#0000FF0000000000
(1651527904.090731) can1 028#7E80140000800000
(1651527904.096447) can1 108#DF64631500000000
(1651527904.098778) can1 168#980A00656C008431
(1651527904.101444) can1 1D8#12000000BEC5F353
(1651527904.103932) can1 048#FE00388F3A6BA406
(1651527904.106263) can1 308#F000004A8005131B
(1651527904.109685) can1 1A8#002834742C580000
(1651527904.111849) can1 328#E0000000005C0000
(1651527904.113856) can1 388#D64DC88C00293A40
(1651527904.125163) can1 3BC#037F507F38000000
(1651527904.127532) can1 088#FF0C071859010000
(1651527904.133358) can1 368#FDC0000800000000
(1651527904.139490) can1 1E8#2000000000000000
(1651527904.144830) can1 511#1302000111000003
(1651527904.149603) can1 248#0080EA42BE4BDF00
(1651527904.154051) can1 288#F000000000910091
(1651527904.161957) can1 088#FF0D071869010000
(1651527904.168430) can1 228#10A500C100293A40
(1651527904.171671) can1 268#EB38000004021802
(1651527904.174837) can1 208#C0020FA0830838B2
(1651527904.177581) can1 2A8#C000000822E80000
(1651527904.185811) can1 2C8#CB00000000007F7F
(1651527904.189491) can1 1C8#80010F483F012015
(1651527904.192015) can1 068#FC01102E1D438000
(1651527904.195507) can1 1A8#002834742C570000
(1651527904.197693) can1 028#7E80140000800000
(1651527904.204454) can1 108#DF64631200000000
(1651527904.208251) can1 128#C000000000003F3F
(1651527904.213066) can1 168#B88A00656C008431
(1651527904.219077) can1 188#3964644A293A4000
(1651527904.223914) can1 1D8#D2000000BEC5F353
(1651527904.226760) can1 2E8#9800000461293A40
(1651527904.229761) can1 308#F000004A8005131B
(1651527904.232478) can1 348#7850077F42380000
(1651527904.235104) can1 088#FF0F071889010000
(1651527904.238443) can1 388#F64DC88C00293A40
(1651527904.240997) can1 3C8#C038272000000000
(1651527904.243735) can1 3DD#CC6006270F003A1D
(1651527904.252229) can1 048#FF80388F3A6BA406
(1651527904.266746) can1 1E8#2000000000000000
(1651527904.269285) can1 400#1B00000102020100
(1651527904.273125) can1 088#FF10071899010000
(1651527904.275403) can1 401#0F00000000000000
(1651527904.277803) can1 228#10A500C100293A40
(1651527904.286475) can1 3BC#037F507F38000000
(1651527904.289004) can1 402#1B00000102020100
(1651527904.292981) can1 404#2200000000000000
(1651527904.296974) can1 405#2200000000000000
(1651527904.300996) can1 3B8#8000000000000000
(1651527904.303771) can1 1A8#002834742C570000
(1651527904.309578) can1 268#EB38000004021802
(1651527904.311971) can1 448#0000FF0000000000
(1651527904.316660) can1 248#0080EA42BE4BDF00
(1651527904.324648) can1 208#C0020FA0830838B2
(1651527904.327245) can1 028#7E80140000800000
(1651527904.330357) can1 068#FC01102E1D438000
(1651527904.334237) can1 088#FF110718A9010000
(1651527904.339960) can1 108#DF64631000000000
(1651527904.343924) can1 168#980A00656C008431
(1651527904.346621) can1 1D8#52000000BEC5F354
(1651527904.362319) can1 368#FD80000800000000
(1651527904.366365) can1 388#D64DC88C00293A40
(1651527904.369773) can1 2C8#CB00000000007F7F
(1651527904.372743) can1 308#F000004A8005131B
(1651527904.380391) can1 1C8#80010F483F012015
(1651527904.392476) can1 088#FF130718C9010000
(1651527904.394607) can1 228#10A500C100293A40
(1651527904.401440) can1 128#C000000000003F3F
(1651527904.403694) can1 048#FE00388F3A6BA406
(1651527904.405845) can1 1E8#2000000000000000
(1651527904.408812) can1 1A8#002834742C560000
(1651527904.416055) can1 2E8#9800000461293A40
(1651527904.427388) can1 513#0102100013000001
(1651527904.430550) can1 088#FF140718D9010000
(1651527904.436365) can1 268#EB38000004021802
(1651527904.439547) can1 2A8#C000000822E80000
(1651527904.445699) can1 028#7E80140000800000
(1651527904.452882) can1 108#DF64631200000000
(1651527904.455845) can1 068#FC01102E1D438000
(1651527904.458988) can1 168#B88A00656C008431
(1651527904.461105) can1 188#3964644A293A4000
(1651527904.464847) can1 1D8#92000000BEC5F354
(1651527904.468047) can1 348#7850077F42380000
(1651527904.471852) can1 208#C0020FA0830838B2
(1651527904.474759) can1 248#0080EA42BE4BDF00
(1651527904.477221) can1 388#F64DC88C00293A40
(1651527904.480621) can1 3BC#037E507E38000000
(1651527904.484673) can1 308#F000004A8005131B
(1651527904.487569) can1 328#E0000000005C0000
(1651527904.490146) can1 3C8#C038272000000000
(1651527904.494739) can1 088#FF150718E9010000
(1651527904.500321) can1 228#10A500C100293A40
(1651527904.511180) can1 3DD#CC6006270F003A1D
(1651527904.518476) can1 2C8#CB00000000007F7F
(1651527904.522586) can1 1A8#002834742C560000
(1651527904.530403) can1 368#FDC0000800000000
(1651527904.537096) can1 1E8#2000000000000000
(1651527904.544728) can1 1C8#80010F483F012015
(1651527904.548482) can1 088#FF08071819010000
(1651527904.552095) can1 3B8#8000000000000000
(1651527904.557498) can1 448#0000FF0000000000
(1651527904.563899) can1 048#FE00388F3A6BA406
(1651527904.572378) can1 268#EB38000004021802
(1651527904.578121) can1 028#7E80140000800000
(1651527904.588029) can1 168#980A00656C008431
(1651527904.588936) can1 108#DF64631400000000
(1651527904.591999) can1 1D8#52000000BEC5F355
(1651527904.595478) can1 068#FC01102E1D438000
(1651527904.597599) can1 088#FF09071829010000
(1651527904.600380) can1 228#10A500C100293A40
(1651527904.603707) can1 128#C000000000003F3F
(1651527904.605841) can1 288#F000000000910091
(1651527904.609128) can1 388#D64DC88C00293A40
(1651527904.615865) can1 308#F000004A8005131B
(1651527904.619714) can1 208#C0020FA0830838B2
(1651527904.622258) can1 1A8#002834732C560000
(1651527904.629997) can1 2E8#D800000461293A40
(1651527904.632719) can1 3BC#037E507E38000000
(1651527904.635490) can1 248#0080EA42BE4BDF00
(1651527904.643632) can1 488#8001000000000000
(1651527904.645870) can1 088#FF0A071839010000
(1651527904.655959) can1 2C8#CB00000000007F7F
(1651527904.658557) can1 1E8#2000000000000000
(1651527904.672619) can1 088#FF0C071859010000
(1651527904.677687) can1 228#10A500C100293A40
(1651527904.680239) can1 028#7E80140000800000
(1651527904.685227) can1 108#DF64631600000000
(1651527904.690898) can1 168#B88A00656C008431
(1651527904.693873) can1 188#3964644A293A4000
(1651527904.696589) can1 1C8#80010F483F012015
(1651527904.699616) can1 048#FE00388F3A6BA406
(1651527904.702118) can1 068#FC01102E1D438000
(1651527904.705283) can1 1A8#002834732C560000
(1651527904.708995) can1 1D8#D2000000BEC5F355
(1651527904.710735) can1 268#EB38000004021802
(1651527904.713407) can1 2A8#C000000822E80000
(1651527904.715754) can1 348#7850077F42380000
(1651527904.727345) can1 368#FDC0000800000000
(1651527904.730608) can1 388#F74DC88C00293A40
(1651527904.733886) can1 3C8#C038272000000000
(1651527904.736712) can1 308#F000004A8005131B
(1651527904.742426) can1 3DD#CC6006270F003A1D
(1651527904.745108) can1 088#FF0D071869010000
(1651527904.747686) can1 501#0302100013000001
(1651527904.752761) can1 208#C0020FA0830838B2
(1651527904.761824) can1 3B8#8000000000000000
(1651527904.764501) can1 448#0000FF0000000000
(1651527904.770596) can1 248#0080EA42BE4BDF00
(1651527904.776465) can1 3BC#037E507E38000000
(1651527904.778935) can1 128#C000000000003F3F
(1651527904.782781) can1 1E8#2000000000000000
(1651527904.785818) can1 088#FF0E071879010000
(1651527904.788419) can1 228#10E500C100293A40
(1651527904.798206) can1 2C8#CB00000000007F7F
(1651527904.802823) can1 2E8#9800000461293A40
(1651527904.805660) can1 1A8#002834732C560000
(1651527904.813106) can1 028#7E80140000800000
(1651527904.818406) can1 108#DF64631700000000
(1651527904.822160) can1 168#980A00656C008431
(1651527904.825912) can1 1D8#12000000BEC5F356
(1651527904.828772) can1 268#EB38000004021802
(1651527904.831582) can1 388#D74DC88C00293A40
(1651527904.837157) can1 068#FC01102E1D438000
(1651527904.841606) can1 088#FF10071899010000
(1651527904.852185) can1 048#FE00388F3A6BA406
(1651527904.855953) can1 1C8#80010F483F012015
(1651527904.859050) can1 308#F000004A8005111B
(1651527904.861123) can1 328#E0000000005C0000
(1651527904.872347) can1 208#C0020FA0830838B2
(1651527904.875327) can1 088#FF110718A9010000
(1651527904.879693) can1 228#10A500C100293A40
(1651527904.887024) can1 368#FDC0000800000000
(1651527904.894082) can1 1E8#2000000000000000
(1651527904.897426) can1 1A8#002834732C560000
(1651527904.900609) can1 400#1C00010000020000
(1651527904.904010) can1 401#1000000019647919
(1651527904.907054) can1 402#1C00010000020000
(1651527904.912020) can1 404#2300000000000000
(1651527904.915187) can1 248#0080EA42BE4BDF00
(1651527904.920600) can1 405#2300000000000000
(1651527904.925699) can1 028#7E80140000800000
(1651527904.930521) can1 088#FF120718B9010000
(1651527904.937102) can1 108#DF64631400000000
(1651527904.941331) can1 168#B88A00656C008431
(1651527904.944909) can1 188#3964644A293A4000
(1651527904.947415) can1 1D8#D2000000BEC5F356
(1651527904.952744) can1 268#EB38000004021802
(1651527904.955230) can1 2A8#C000000822E80000
(1651527904.959073) can1 2C8#CB00000000007F7F
(1651527904.962701) can1 348#7850077E42380000
(1651527904.964966) can1 068#FC01102E1D438000
(1651527904.973140) can1 388#F74DC88C00293A40
(1651527904.977469) can1 128#C000000000003F3F
(1651527904.980329) can1 3BC#037E507E38000000
(1651527904.983592) can1 3C8#C038272000000000
(1651527904.989574) can1 3DD#CC6006270F003A1D
(1651527904.992923) can1 308#F000004A0005111B
(1651527904.995984) can1 3B8#8000000000000000
(1651527905.000760) can1 288#F000000000910091
(1651527905.003572) can1 088#FF140718D9010000
(1651527905.005652) can1 228#10A500C100293A40
(1651527905.008538) can1 448#0000FF0000000000
(1651527905.017164) can1 048#FF80388F3A6BA406
(1651527905.019532) can1 2E8#9800000461293A40
(1651527905.021663) can1 1A8#002834732C550000
(1651527905.027789) can1 503#0402100013000001
(1651527905.031631) can1 208#C0020FA0830838B2
(1651527905.033798) can1 1C8#80010F483F012015
(1651527905.039727) can1 1E8#2000000000000000
(1651527905.041961) can1 088#FF150718E9010000
(1651527905.051826) can1 028#7E80140000800000
(1651527905.056790) can1 108#DF64631200000000
(1651527905.058761) can1 168#980A00656C008431
(1651527905.063830) can1 1D8#52000000BEC5F357
(1651527905.065869) can1 268#EB38000004021802
(1651527905.068056) can1 388#874DC88C00293A40
(1651527905.071065) can1 248#0080EA42BE4BDF00
(1651527905.079427) can1 068#FC01102E1D438000
(1651527905.081722) can1 088#FF07071809010000
(1651527905.084836) can1 228#10A500C100293A40
(1651527905.087664) can1 368#FDC0000800000000
(1651527905.094278) can1 3BC#037E507E38000000
(1651527905.100732) can1 2C8#CB00000000007F7F
(1651527905.102936) can1 308#F000004A0005111B
(1651527905.104828) can1 1A8#002834732C550000
(1651527905.119613) can1 088#FF09071829010000
(1651527905.127861) can1 128#C000000000003F3F
(1651527905.131888) can1 048#FE00388F3A6BA406
(1651527905.134944) can1 1E8#2000000000000000
(1651527905.137478) can1 208#C0020FA0830838B2
(1651527905.144012) can1 028#7E80140000800000
(1651527905.148995) can1 108#DF64631600000000
(1651527905.152391) can1 168#B88A00656C008431
(1651527905.155278) can1 188#2164644A293A4000
(1651527905.159601) can1 1C8#80010F483F012015
(1651527905.162163) can1 088#FF0A071839010000
(1651527905.168460) can1 1D8#D2000000BEC5F357
(1651527905.170881) can1 228#10A500C100293A40
(1651527905.173671) can1 268#EB38000004021802
(1651527905.176613) can1 2A8#C000000822E80000
(1651527905.179529) can1 348#7850077E42380000
(1651527905.182176) can1 388#F74DC88C00293A40
(1651527905.186028) can1 3C8#C038272000000000
(1651527905.190439) can1 2E8#9800000461293A40
(1651527905.193509) can1 068#FC01102E1D438000
(1651527905.196028) can1 1A8#002834732C550000
(1651527905.202192) can1 3B8#8000000000000000
(1651527905.205341) can1 3DD#CC6006270F003A1D
(1651527905.208775) can1 248#0080EA42BE4BDF00
(1651527905.211364) can1 448#0000FF0000000000
(1651527905.216447) can1 308#F000004A0005111B
(1651527905.218993) can1 328#E0000000005C0000
(1651527905.220808) can1 088#FF0B071849010000
(1651527905.233044) can1 2C8#CB00000000007F7F
(1651527905.235736) can1 3BC#037E507E38000000
(1651527905.243399) can1 368#FDC0000800000000
(1651527905.249951) can1 1E8#2000000000000000
(1651527905.252365) can1 088#FF0D071869010000
(1651527905.256002) can1 228#10A500C100293A40
(1651527905.258649) can1 504#0502000304000000
(1651527905.260836) can1 028#7E80140000800000
(1651527905.266402) can1 108#DF64631400000000
(1651527905.270097) can1 168#980A00656C008431
(1651527905.272491) can1 1D8#12000000BEC5F358
(1651527905.274958) can1 208#C0020FA0830838B2
(1651527905.277199) can1 048#FE00308F3A6BA406
(1651527905.280489) can1 1A8#002834732C550000
(1651527905.286011) can1 268#EB38000004021802
(1651527905.289858) can1 388#D74DC88C00293A40
(1651527905.300363) can1 068#FC01102E1D438000
(1651527905.302598) can1 088#FF0E071879010000
(1651527905.304854) can1 488#8002000000000000
(1651527905.307737) can1 128#C000000000003F3F
(1651527905.311637) can1 1C8#80010F483F012015
(1651527905.317156) can1 308#F000004A0005111B
(1651527905.325707) can1 248#0080EA42BE4BDF00
(1651527905.337483) can1 088#FF0F071889010000
(1651527905.340249) can1 228#10A500C100293A40
(1651527905.345372) can1 288#F000000000910091
(1651527905.351650) can1 2C8#CB00000000007F7F
(1651527905.354181) can1 1E8#2000000000000000
(1651527905.357701) can1 1A8#002834732C550000
(1651527905.360090) can1 2E8#9800000461293A40
(1651527905.364674) can1 028#7E80140000800000
(1651527905.370652) can1 108#DF64631400000000
(1651527905.372883) can1 168#B88A00656C008431
(1651527905.374974) can1 188#39646438293A4000
(1651527905.376881) can1 1D8#D2000000BEC5F358
(1651527905.379047) can1 348#7850077E42380000
(1651527905.382658) can1 378#00000000008E231B
(1651527905.384822) can1 208#C0020FA0830838B2
(1651527905.387071) can1 388#F74DC88C00293A40
(1651527905.390668) can1 088#FF110718A9010000
(1651527905.394480) can1 268#EB38000004021802
(1651527905.396489) can1 2A8#C000000822E80000
(1651527905.399004) can1 3B8#8000000000000000
(1651527905.400797) can1 3BC#037E507E38000000
(1651527905.402866) can1 3C8#C038272000000000
(1651527905.408825) can1 048#FE00308F3A6BA406
(1651527905.410942) can1 068#FC00102E1D438000
(1651527905.414137) can1 368#FDC0000800000000
(1651527905.417204) can1 3DD#CC6006270F003A1D
(1651527905.420552) can1 448#0000FF0000000000
(1651527905.428517) can1 308#F000004A0005111B
(1651527905.431917) can1 088#FF120718B9010000
(1651527905.433804) can1 228#10E500C100293A40
(1651527905.447042) can1 1C8#80010F483F012015
(1651527905.451845) can1 1A8#002834732C550000
(1651527905.458071) can1 248#0080EA42BE4BDF00
(1651527905.462626) can1 128#C000000000003F3F
(1651527905.468025) can1 1E8#2000000000000000
(1651527905.471374) can1 028#7E80140000800000
(1651527905.475178) can1 088#FF130718C9010000
(1651527905.483850) can1 108#DF64631000000000
(1651527905.487797) can1 168#980A00656C008431
(1651527905.491040) can1 1D8#52000000BEC5F359
(1651527905.493725) can1 388#D74DC88C00293A40
(1651527905.496444) can1 400#1D00000000000000
(1651527905.498993) can1 401#1164790000001964
(1651527905.501228) can1 2C8#CB00000000007F7F
(1651527905.504882) can1 402#1D00000000000000
(1651527905.507685) can1 404#0167BEC5F3586006
(1651527905.511902) can1 268#EB38000004021802
(1651527905.515565) can1 405#0167BEC5F3584204
(1651527905.517678) can1 208#C0020FA0830838B2
(1651527905.523549) can1 3BC#037E507E38000000
(1651527905.526107) can1 505#0802000305000000
(1651527905.531903) can1 068#FC00102E1D438000
(1651527905.534186) can1 088#FF150718E9010000
(1651527905.537544) can1 228#10A500C100293A40
(1651527905.546245) can1 048#FE00308F3A6BA406
(1651527905.549930) can1 2E8#9800000461293A40
(1651527905.552386) can1 1A8#002834732C550000
(1651527905.557966) can1 308#F000004A0005111B
(1651527905.561136) can1 328#E0000000005C0000
(1651527905.571714) can1 088#FF07071809010000
(1651527905.578968) can1 368#FD80000800000000
(1651527905.589168) can1 028#7E80140000800000
(1651527905.594055) can1 108#DF64631000000000
(1651527905.597313) can1 168#B88A00656C008431
(1651527905.600844) can1 188#39646438293A4000
(1651527905.602873) can1 1D8#92000000BEC5F359
(1651527905.605196) can1 1E8#2000000000000000
(1651527905.607886) can1 348#7850077E42380000
(1651527905.609951) can1 388#F74DC88C00293A40
(1651527905.613067) can1 1C8#80010F483F012015
(1651527905.616766) can1 248#0080EA42BE4BDF00
(1651527905.619033) can1 3B8#8000000000000000
(1651527905.622689) can1 3C8#C038272000000000
(1651527905.625183) can1 448#0000FF0000000000
(1651527905.628564) can1 4D8#0000000000000000
(1651527905.630675) can1 088#FF08071819010000
(1651527905.642254) can1 228#10A500C100293A40
(1651527905.645625) can1 268#EB38000004021802
(1651527905.648023) can1 2A8#C000000822E80000
(1651527905.653362) can1 2C8#CB00000000007F7F
(1651527905.657758) can1 208#C0020FA0830838B2
(1651527905.660084) can1 068#FC00102E1D438000
(1651527905.663855) can1 1A8#002834732C570000
(1651527905.666291) can1 3DD#CC6006270F003A1D
(1651527905.669631) can1 128#C000000000003F3F
(1651527905.676989) can1 308#F000004A0005111B
(1651527905.682154) can1 3BC#037E507E38000000
(1651527905.685782) can1 088#FF0A071839010000
(1651527905.696090) can1 048#FF80308F3A6BA406
(1651527905.704515) can1 028#7E80140000800000
(1651527905.711593) can1 108#DF64631300000000
(1651527905.713966) can1 168#980A00656C008431
(1651527905.717846) can1 1D8#52000000BEC5F35A
(1651527905.720240) can1 1E8#2000000000000000
(1651527905.724230) can1 088#FF0B071849010000
(1651527905.726391) can1 228#10A500C100293A40
(1651527905.729683) can1 388#D74DC88C00293A40
(1651527905.735323) can1 288#F000000000910091
(1651527905.738550) can1 2E8#D800000461293A40
(1651527905.740832) can1 1A8#002834732C570000
(1651527905.748828) can1 268#EB38000004021802
(1651527905.753264) can1 248#0080EA42BE4BDF00
(1651527905.760652) can1 068#FC00102E1D438000
(1651527905.762738) can1 088#FF0C071859010000
(1651527905.764902) can1 1C8#80010F483F012015
(1651527905.767518) can1 368#FDC0000800000000
(1651527905.771136) can1 208#C0020FA0830838B2
(1651527905.774893) can1 508#0B12000008000000
(1651527905.780812) can1 2C8#CB00000000007F7F
(1651527905.783353) can1 308#F000004A0005111B
(1651527905.796517) can1 3B8#8000000000000000
(1651527905.798554) can1 448#0000FF0000000000
(1651527905.800759) can1 088#FF0E071879010000
(1651527905.802578) can1 228#10A500C100293A40
(1651527905.805988) can1 028#7E80140000800000
(1651527905.812125) can1 108#DF64631100000000
(1651527905.814377) can1 168#B88A00656C008431
(1651527905.817789) can1 188#39646438293A4000
(1651527905.820060) can1 128#C000000000003F3F
(1651527905.823522) can1 048#FE00308F3A6BA406
(1651527905.825826) can1 1A8#002834742C5B0000
(1651527905.827592) can1 1D8#D2000000BEC5F35A
(1651527905.829595) can1 1E8#2000000000000000
(1651527905.831875) can1 348#7850077E42380000
(1651527905.834536) can1 388#F74DC88C00293A40
(1651527905.836732) can1 3BC#037E507E38000000
(1651527905.838881) can1 3C8#C038272000000000
(1651527905.845410) can1 088#FF0F071889010000
(1651527905.851081) can1 268#EB38000004021802
(1651527905.854470) can1 2A8#C000000822E80000
(1651527905.862183) can1 068#FC00102E1D438000
(1651527905.865404) can1 3DD#CC6006270F003A1D
(1651527905.873087) can1 248#0080EA42BE4BDF00
(1651527905.880152) can1 308#F000004A0005111B
(1651527905.883808) can1 208#C0020FA0830838B2
(1651527905.885857) can1 328#E0000000005C0000
(1651527905.888041) can1 088#FF10071899010000
(1651527905.891815) can1 228#10A500C100293A40
(1651527905.896272) can1 1C8#80010F483F012015
(1651527905.901570) can1 2C8#CB00000000007F7F
(1651527905.903731) can1 2E8#9800000461293A40
(1651527905.905779) can1 1A8#002834742C5B0000
(1651527905.907859) can1 028#7E80140000800000
(1651527905.912638) can1 108#DF64630F00000000
(1651527905.914625) can1 168#980A00656C008431
(1651527905.916663) can1 1D8#12000000BEC5F35A
(1651527905.918590) can1 368#FDC0000800000000
(1651527905.920518) can1 388#D74DC88C00293A40
(1651527905.924219) can1 1E8#2000000000000000
(1651527905.927725) can1 488#8003000000000000
(1651527905.929803) can1 088#FF120718B9010000
(1651527905.942315) can1 3BC#037E507E38000000
(1651527905.945596) can1 048#FE00308F3A6BA406
(1651527905.951301) can1 268#EB38000004021802
(1651527905.961101) can1 068#FC00102E1D438000
(1651527905.963223) can1 088#FF130718C9010000
(1651527905.966529) can1 228#10A500C100293A40
(1651527905.968786) can1 128#C000000000003F3F
(1651527905.978860) can1 308#F000004A0005111B
(1651527905.981207) can1 1A8#002834742C5E0000
(1651527905.984894) can1 3B8#8000000000000000
(1651527905.986938) can1 448#0000FF0000000000
(1651527905.991755) can1 208#C0020FA0830838B2
(1651527905.993817) can1 248#0080EA42BE4BDF00
(1651527905.997028) can1 50B#0C1200000B000000
(1651527906.001326) can1 028#7E80140000800000
(1651527906.006711) can1 088#FF140718D9010000
(1651527906.008700) can1 108#DF64631200000000
(1651527906.010635) can1 168#B88A00656C008431
(1651527906.012762) can1 188#39646438293A4000
(1651527906.014775) can1 1D8#D2000000BEC5F35B
(1651527906.017153) can1 348#7850077E42380000
(1651527906.018465) can1 388#F74DC88C00293A40
(1651527906.020363) can1 3C8#C038272000000000
(1651527906.023835) can1 2C8#CB00000000007F7F
(1651527906.025771) can1 1E8#2000000000000000
(1651527906.027813) can1 1C8#80010F483F012015
(1651527906.029884) can1 400#1E00010000000008
(1651527906.031673) can1 401#125B19645B000000
(1651527906.033680) can1 402#1E00010000000008
(1651527906.035741) can1 404#023A36002E041F6C
(1651527906.042566) can1 405#023A36002E041F6C
(1651527906.048023) can1 228#10A500C100293A40
(1651527906.051501) can1 088#FF07071809010000
(1651527906.056819) can1 268#EB38000004021802
(1651527906.059024) can1 2A8#C000000822E80000
(1651527906.064542) can1 2E8#9800000461293A40
(1651527906.066595) can1 048#FE00308F3A6BA406
(1651527906.068729) can1 068#FC00102E1D438000
(1651527906.070872) can1 1A8#002834742C5E0000
(1651527906.076408) can1 288#F000000000910091
(1651527906.080199) can1 368#FDC0000800000000
(1651527906.082141) can1 3BC#037E507E38000000
(1651527906.085335) can1 3DD#CC6006270F003A1D
(1651527906.091741) can1 308#F000004A0005111B
(1651527906.093790) can1 088#FF08071819010000
(1651527906.102892) can1 028#7E80140000800000
(1651527906.108886) can1 108#DF64631200000000
(1651527906.110937) can1 168#980A00656C008431
(1651527906.112912) can1 1D8#52000000BEC5F35C
(1651527906.115074) can1 208#C0020FA0830838B2
(1651527906.118922) can1 388#D74DC88C00293A40
(1651527906.122366) can1 248#0080EA42BE4BDF00
(1651527906.127771) can1 128#C000000000003F3F
(1651527906.131633) can1 1E8#2000000000000000
(1651527906.134004) can1 228#10E500C100293A40
(1651527906.137101) can1 088#FF09071829010000
(1651527906.148682) can1 2C8#CB00000000007F7F
(1651527906.151085) can1 1A8#002834742C5E0000
(1651527906.156926) can1 268#EB38000004021802
(1651527906.163572) can1 1C8#80010F483F012015
(1651527906.169351) can1 3B8#8000000000000000
(1651527906.172117) can1 068#FC00102E1D438000
(1651527906.175867) can1 088#FF0B071849010000
(1651527906.181294) can1 448#0000FF0000000000
(1651527906.189987) can1 048#FE00308F3A6BA406
(1651527906.192206) can1 308#F000004A0005111B
(1651527906.195663) can1 328#E0000000005C0000
(1651527906.201556) can1 028#7E80140000800000
(1651527906.205633) can1 108#DF64631100000000
(1651527906.208677) can1 168#B88A00656C008431
(1651527906.211024) can1 188#39646438293A4000
(1651527906.214521) can1 1D8#92000000BEC5F35C
(1651527906.217048) can1 088#FF0C071859010000
(1651527906.220653) can1 228#10A500C100293A40
(1651527906.223121) can1 348#7850077E42380000
(1651527906.226403) can1 388#F74DC88C00293A40
(1651527906.229885) can1 208#C0020FA0830838B2
(1651527906.232357) can1 368#FDC0000800000000
(1651527906.235817) can1 3BC#037E507E38000000
(1651527906.237833) can1 3C8#C038272000000000
(1651527906.240358) can1 2E8#9800000461293A40
(1651527906.242618) can1 1A8#002834742C5E0000
(1651527906.246068) can1 1E8#2000000000000000
(1651527906.251794) can1 50C#0F0200400C000000
(1651527906.256531) can1 248#0080EA42BE4BDF00
(1651527906.263417) can1 088#FF0D071869010000
(1651527906.268808) can1 268#EB38000004021802
(1651527906.271020) can1 2A8#C000000822E80000
(1651527906.280494) can1 2C8#C800000000007F7F
(1651527906.282891) can1 068#FC00102F1D438000
(1651527906.285262) can1 3DD#CC6006270F003A1D
(1651527906.289868) can1 128#C000000000003F3F
(1651527906.297782) can1 308#F000004A0005111B
(1651527906.301303) can1 228#10A500C100293A40
(1651527906.305012) can1 088#FF0F071889010000
(1651527906.307897) can1 1C8#80010F483F012015
(1651527906.309956) can1 028#7E80140000800000
(1651527906.316880) can1 108#DF64631000000000
(1651527906.319014) can1 168#980A00656C008431
(1651527906.321132) can1 1D8#52000000BEC5F35C
(1651527906.324731) can1 388#D74DC88C00293A40
(1651527906.326901) can1 048#FF80308F3A6BA406
(1651527906.329286) can1 1A8#002834742C600000
(1651527906.341471) can1 208#C0020FA0830838B2
(1651527906.345908) can1 088#FF10071899010000
(1651527906.348028) can1 1E8#2000000000000000
(1651527906.351866) can1 3BC#037E507E38000000
(1651527906.360126) can1 3B8#8000000000000000
(1651527906.363896) can1 448#0000FF0000000000
(1651527906.368692) can1 268#EB38000004021802
(1651527906.373747) can1 248#0080EA42BE4BDF00
(1651527906.381390) can1 068#FC00102E1D438000
(1651527906.384040) can1 088#FF110718A9010000
(1651527906.386106) can1 228#10A500C100293A40
(1651527906.389464) can1 368#FDC0000800000000
(1651527906.396916) can1 2E8#9800000461293A40
(1651527906.398858) can1 2C8#CB00000000007F7F
(1651527906.401208) can1 1A8#002834742C600000
(1651527906.404966) can1 288#F000000000910091
(1651527906.407080) can1 028#7E80140000800000
(1651527906.412909) can1 108#DF64631300000000
(1651527906.414921) can1 168#B88A00656C008431
(1651527906.416913) can1 188#39646438293A4000
(1651527906.419050) can1 1D8#D2000000BEC5F35D
(1651527906.422476) can1 308#F000004A0005111B
(1651527906.424775) can1 348#7850077E42380000
(1651527906.427067) can1 388#F74DC88C00293A40
(1651527906.430291) can1 3C8#C038272000000000
(1651527906.433901) can1 088#FF130718C9010000
(1651527906.441250) can1 1C8#80010F483F012015
(1651527906.449202) can1 128#C000000000003F3F
(1651527906.453051) can1 048#FE00308F3A6BA406
(1651527906.457006) can1 1E8#2000000000000000
(1651527906.464495) can1 208#C0020FA0830838B2
(1651527906.470162) can1 50F#111200400C000000
