(1651527928.379888) can1 1A8#002834852C7C0000
(1651527928.385048) can1 208#C0020820830838B2
(1651527928.394390) can1 3BC#0386508638000000
(1651527928.403761) can1 128#C000000000003F3F
(1651527928.406518) can1 088#FF09071828010000
(1651527928.409814) can1 228#10A500C400293A40
(1651527928.418893) can1 1E8#2000000000000000
(1651527928.421201) can1 1C8#80010F483F012015
(1651527928.432418) can1 248#0080EA42BE4BDF00
(1651527928.434989) can1 268#EB38000004021802
(1651527928.437106) can1 2C8#CB00000000007F7F
(1651527928.443913) can1 068#FC0010311D438000
(1651527928.446114) can1 088#FF0B071848010000
(1651527928.450405) can1 3B8#8000000000000000
(1651527928.454146) can1 448#0000FF0000000000
(1651527928.460767) can1 028#7E80140000800000
(1651527928.466314) can1 108#DF64631000000000
(1651527928.469659) can1 168#980A00656C008431
(1651527928.472035) can1 188#3964645D293A4000
(1651527928.473917) can1 1A8#002834852C7B0000
(1651527928.477170) can1 1D8#50000000BEC5F3BF
(1651527928.482675) can1 348#7850078742380000
(1651527928.484866) can1 388#D74EC88C00293A40
(1651527928.488110) can1 3C8#C038272000000000
(1651527928.491640) can1 505#0802000305000000
(1651527928.493744) can1 048#FE00308F3A6B2406
(1651527928.495757) can1 308#F000005C8005101C
(1651527928.497791) can1 328#E0000000005D0000
(1651527928.500018) can1 088#FF0C071858010000
(1651527928.503454) can1 228#10A500C400293A40
(1651527928.508669) can1 368#FDC0000800000000
(1651527928.512872) can1 208#C0020820830838B2
(1651527928.515029) can1 2E8#9800000461293A40
(1651527928.518275) can1 400#2200000000000000
(1651527928.521181) can1 401#024330363232424E
(1651527928.524522) can1 402#2200000000000000
(1651527928.526509) can1 404#023A360031041F6C
(1651527928.528740) can1 405#023A360031041F6C
(1651527928.538680) can1 1E8#2000000000000000
(1651527928.540712) can1 088#FF0D071868010000
(1651527928.544640) can1 268#EB38000004021802
(1651527928.546631) can1 2A8#C000000822E80000
(1651527928.548686) can1 3BC#0386508638000000
(1651527928.555083) can1 068#FC0010311D438000
(1651527928.559280) can1 1A8#002834852C7B0000
(1651527928.562535) can1 248#0080EA42BE4BDF00
(1651527928.564846) can1 2C8#CB00000000007F7F
(1651527928.567552) can1 3DD#CC60062713003A1C
(1651527928.569704) can1 1C8#80010F483F012015
(1651527928.571804) can1 028#7E80140000800000
(1651527928.575462) can1 108#DF64630F00000000
(1651527928.577310) can1 128#C000000000003F3F
(1651527928.580590) can1 168#B88A00656C008431
(1651527928.582407) can1 1D8#90000000BEC5F3BF
(1651527928.585607) can1 088#FF0F071888010000
(1651527928.587616) can1 228#10A500C400293A40
(1651527928.589480) can1 388#F74EC88C00293A40
(1651527928.591358) can1 488#8007000000000000
(1651527928.596108) can1 308#F000005C8005101B
(1651527928.609733) can1 048#FF80308F3A6B2406
(1651527928.616346) can1 088#FF10071898010000
(1651527928.620398) can1 208#C0020820830838B2
(1651527928.631071) can1 1E8#2000000000000000
(1651527928.635744) can1 1A8#002834842C7A0000
(1651527928.639941) can1 268#EB38000004021802
(1651527928.642668) can1 288#F000000000910091
(1651527928.645684) can1 3B8#8000000000000000
(1651527928.648704) can1 448#0000FF0000000000
(1651527928.654698) can1 068#FC0010311D438000
(1651527928.657661) can1 368#FDC0000800000000
(1651527928.660337) can1 088#FF110718A8010000
(1651527928.663981) can1 228#10A500C400293A40
(1651527928.666779) can1 028#7E80140000800000
(1651527928.673315) can1 108#DF64631100000000
(1651527928.677115) can1 168#980A00656C008431
(1651527928.681124) can1 188#3964645D293A4000
(1651527928.685370) can1 1D8#50000000BEC5F3C0
(1651527928.689587) can1 2E8#9800000461293A40
(1651527928.692789) can1 348#7850078642380000
(1651527928.695912) can1 248#0080EA42BE4BDF00
(1651527928.699973) can1 2C8#CB00000000007F7F
(1651527928.703665) can1 388#D74EC88C00293A40
(1651527928.706350) can1 3BC#0386508638000000
(1651527928.710235) can1 3C8#C038272000000000
(1651527928.716041) can1 308#F000005C8005101B
(1651527928.726067) can1 1C8#80010F483F012015
(1651527928.729378) can1 088#FF130718C8010000
(1651527928.741311) can1 1A8#002834842C7A0000
(1651527928.745393) can1 508#0B12000008000000
(1651527928.750392) can1 128#C000000000003F3F
(1651527928.761335) can1 048#FE00308F3A6B2406
(1651527928.765886) can1 208#C0020820830838B2
(1651527928.769815) can1 1E8#2000000000000000
(1651527928.773152) can1 228#10A500C400293A40
(1651527928.776397) can1 088#FF140718D8010000
(1651527928.785103) can1 268#EB38000004021802
(1651527928.789255) can1 2A8#C000000822E80000
(1651527928.797323) can1 068#FC0010311D438000
(1651527928.801671) can1 3DD#CC60062713003A1C
(1651527928.804289) can1 028#7E80140000800000
(1651527928.811498) can1 108#DF64631000000000
(1651527928.815384) can1 168#B88A00656C008431
(1651527928.819501) can1 1D8#D0000000BEC5F3C0
(1651527928.822109) can1 388#F74EC88C00293A40
(1651527928.829724) can1 088#FF150718E8010000
(1651527928.837467) can1 308#F000005C8005101B
(1651527928.841634) can1 328#E0000000005D0000
(1651527928.844214) can1 3BC#0386508638000000
(1651527928.847779) can1 1A8#002834842C7A0000
(1651527928.849738) can1 248#0080EA42BE4BDF00
(1651527928.852141) can1 2C8#CB00000000007F7F
(1651527928.856750) can1 368#FD80000800000000
(1651527928.864650) can1 228#10A500C400293A40
(1651527928.867431) can1 088#FF08071818010000
(1651527928.869588) can1 3B8#8000000000000000
(1651527928.873606) can1 448#0000FF0000000000
(1651527928.875823) can1 1C8#80010F483F012015
(1651527928.879503) can1 2E8#9800000461293A40
(1651527928.882883) can1 1E8#2000000000000000
(1651527928.887860) can1 268#EB38000004021802
(1651527928.889815) can1 208#C0020820830838B2
(1651527928.895811) can1 048#FE00308F3A6B2406
(1651527928.900380) can1 028#7E80140000800000
(1651527928.904002) can1 068#FC0010311D438000
(1651527928.907490) can1 088#FF09071828010000
(1651527928.914356) can1 108#DF64630B00000000
(1651527928.918464) can1 168#980A00656C008431
(1651527928.920976) can1 188#3964645D293A4000
(1651527928.922985) can1 128#C000000000003F3F
(1651527928.926241) can1 1D8#10000000BEC5F3C1
(1651527928.929430) can1 348#7850078642380000
(1651527928.931761) can1 388#D74EC88C00293A40
(1651527928.935111) can1 1A8#002834842C7A0000
(1651527928.938478) can1 3C8#C038272000000000
(1651527928.952367) can1 308#F000005C8005101B
(1651527928.956744) can1 228#10A500C400293A40
(1651527928.958782) can1 088#FF0A071838010000
(1651527928.969820) can1 248#0080EA42BE4BDF00
(1651527928.975812) can1 2C8#CB00000000007F7F
(1651527928.977849) can1 3BC#0386508638000000
(1651527928.986917) can1 1E8#2000000000000000
(1651527928.989026) can1 50B#0C1200000B000000
(1651527928.992613) can1 088#FF0C071858010000
(1651527928.996795) can1 268#EB38000004021802
(1651527928.998792) can1 2A8#C000000822E80000
(1651527929.004309) can1 028#7E80140000800000
(1651527929.009991) can1 108#DF64631000000000
(1651527929.012449) can1 068#FC0010311D438000
(1651527929.014358) can1 168#B88A00656C008431
(1651527929.017560) can1 1A8#002834842C7A0000
(1651527929.019678) can1 1C8#80010F483F012015
(1651527929.021852) can1 1D8#D0000000BEC5F3C1
(1651527929.024101) can1 208#C0020820830838B2
(1651527929.027389) can1 288#F000000000910091
(1651527929.030774) can1 368#FDC0000800000000
(1651527929.032810) can1 048#FE00308F3A6B2406
(1651527929.034765) can1 388#F74EC88C00293A40
(1651527929.036874) can1 3DD#CC60062713003A1C
(1651527929.039300) can1 228#10E500C400293A40
(1651527929.042936) can1 088#FF0D071868010000
(1651527929.044596) can1 4D8#0000000000000000
(1651527929.052012) can1 308#F000005C8005101C
(1651527929.054073) can1 2E8#9800000461293A40
(1651527929.061520) can1 3B8#8000000000000000
(1651527929.064111) can1 448#0000FF0000000000
(1651527929.074457) can1 400#2300000000000000
(1651527929.076448) can1 088#FF0E071878010000
(1651527929.078440) can1 128#C000000000003F3F
(1651527929.080715) can1 401#0352383736353002
(1651527929.082696) can1 402#2300000000000000
(1651527929.084533) can1 404#2600000000000000
(1651527929.086526) can1 405#2600000000000000
(1651527929.092140) can1 1A8#002834842C7A0000
(1651527929.094378) can1 1E8#2000000000000000
(1651527929.099800) can1 248#0080EA42BE4BDF00
(1651527929.101771) can1 268#EB38000004021802
(1651527929.103914) can1 2C8#CB00000000007F7F
(1651527929.107516) can1 028#7E80140000800000
(1651527929.111894) can1 108#DF64631200000000
(1651527929.114056) can1 168#980A00656C008431
(1651527929.117102) can1 188#3964645D293A4000
(1651527929.120772) can1 068#FC0010311D438000
(1651527929.123075) can1 088#FF10071898010000
(1651527929.126411) can1 1D8#50000000BEC5F3C2
(1651527929.128704) can1 208#C0020820830838B2
(1651527929.130642) can1 228#10A500C400293A40
(1651527929.132873) can1 348#7850078642380000
(1651527929.134794) can1 378#00000000008E2325
(1651527929.136939) can1 388#D74EC88C00293A40
(1651527929.138627) can1 3BC#0385508538000000
(1651527929.140837) can1 3C8#C038272000000000
(1651527929.151303) can1 1C8#80010F483F012015
(1651527929.154431) can1 048#FE00308F3A6B2406
(1651527929.156685) can1 308#F000005D8005101C
(1651527929.159037) can1 328#E0000000005D0000
(1651527929.164524) can1 088#FF110718A8010000
(1651527929.170704) can1 368#FDC0000800000000
(1651527929.179286) can1 1A8#002834842C7A0000
(1651527929.193052) can1 488#8008000000000000
(1651527929.196774) can1 1E8#2000000000000000
(1651527929.200428) can1 088#FF120718B8010000
(1651527929.207900) can1 028#7E80140000800000
(1651527929.215915) can1 108#DF64630F00000000
(1651527929.219294) can1 168#B88A00656C008431
(1651527929.223782) can1 1D8#90000000BEC5F3C2
(1651527929.226731) can1 228#10A500C400293A40
(1651527929.229198) can1 268#EB38000004021802
(1651527929.234289) can1 068#FC0010311D438000
(1651527929.237713) can1 248#0080EA42BE4BDF00
(1651527929.240512) can1 2A8#C000000822E80000
(1651527929.244456) can1 2C8#CB00000000007F7F
(1651527929.247116) can1 2E8#9800000461293A40
(1651527929.251279) can1 388#F74EC88C00293A40
(1651527929.254767) can1 3DD#CC60062713003A1C
(1651527929.257807) can1 128#C000000000003F3F
(1651527929.260561) can1 50C#0F0200400C000000
(1651527929.262583) can1 208#C0020820830838B2
(1651527929.269907) can1 3BC#0385508538000000
(1651527929.273662) can1 088#FF140718D8010000
(1651527929.276463) can1 3B8#8000000000000000
(1651527929.278762) can1 448#0000FF0000000000
(1651527929.283959) can1 308#F000005D8005101C
(1651527929.288907) can1 1A8#002834832C790000
(1651527929.301919) can1 048#FF80308F3A6B2406
(1651527929.307163) can1 228#50A500C500293A40
(1651527929.313590) can1 1C8#80010F483F012015
(1651527929.317539) can1 088#FF150718E8010000
(1651527929.327908) can1 1E8#2000000000000000
(1651527929.333785) can1 028#7E80140000800000
(1651527929.339462) can1 108#DF64630D00000000
(1651527929.343570) can1 168#980A00656C008431
(1651527929.346502) can1 188#3964645D293A4000
(1651527929.349821) can1 1D8#50000000BEC5F3C3
(1651527929.354015) can1 268#EB38000004021802
(1651527929.356940) can1 348#7850078542380000
(1651527929.360008) can1 388#874EC88C00293A40
(1651527929.364232) can1 068#FC0010311D438000
(1651527929.369137) can1 088#FF07071808010000
(1651527929.373447) can1 368#FDC0000800000000
(1651527929.376485) can1 3C8#C038272000000000
(1651527929.386479) can1 1A8#002834832C790000
(1651527929.389016) can1 248#0080EA42BE4BDF00
(1651527929.391360) can1 2C8#C300000000007F7F
(1651527929.395159) can1 208#C0020820830838B2
(1651527929.405119) can1 308#F000005D8005101C
(1651527929.409184) can1 288#F000000000910091
(1651527929.412799) can1 228#10A500C500293A40
(1651527929.415744) can1 088#FF09071828010000
(1651527929.423401) can1 3BC#0385508538000000
(1651527929.428426) can1 2E8#D800000461293A40
(1651527929.433734) can1 128#C000000000003F3F
(1651527929.441841) can1 048#FE00308F3A6B2406
(1651527929.446375) can1 028#7E80140000800000
(1651527929.452350) can1 088#FF0A071838010000
(1651527929.459974) can1 108#DF64631200000000
(1651527929.462347) can1 168#B88A00656C008431
(1651527929.466022) can1 1D8#D0000000BEC5F3C3
(1651527929.469415) can1 1C8#80010F483F012015
(1651527929.473129) can1 1E8#2000000000000000
(1651527929.476575) can1 268#EB38000004021802
(1651527929.478664) can1 2A8#C000000822E80000
(1651527929.481074) can1 068#FC0010311D438000
(1651527929.484782) can1 1A8#002834832C790000
(1651527929.486936) can1 388#F74EC88C00293A40
(1651527929.488720) can1 3DD#CC60062713003A1C
(1651527929.493382) can1 3B8#8000000000000000
(1651527929.497552) can1 448#0000FF0000000000
(1651527929.506913) can1 228#10A500C500293A40
(1651527929.509484) can1 088#FF0B071848010000
(1651527929.511844) can1 50F#111200400C000000
(1651527929.518493) can1 308#F000005D8005101C
(1651527929.520594) can1 208#C0020820830838B2
(1651527929.522867) can1 328#E0000000005D0000
(1651527929.526636) can1 248#0080EA42BE4BDF00
(1651527929.530633) can1 2C8#CB00000000007F7F
(1651527929.533918) can1 368#FDC0000800000000
(1651527929.542607) can1 088#FF0D071868010000
(1651527929.551387) can1 028#7E80140000800000
(1651527929.556220) can1 108#DF64630E00000000
(1651527929.559691) can1 168#980A00656C008431
(1651527929.566354) can1 188#3964645D293A4000
(1651527929.569894) can1 1A8#002834832C790000
(1651527929.572287) can1 1D8#10000000BEC5F3C4
(1651527929.576379) can1 1E8#2000000000000000
(1651527929.578742) can1 268#EB38000004021802
(1651527929.581064) can1 348#7850078542380000
(1651527929.584769) can1 048#FE00308F3A6B2406
(1651527929.587081) can1 388#D74EC88C00293A40
(1651527929.591381) can1 068#FC0010311D438000
(1651527929.595226) can1 088#FF0E071878010000
(1651527929.599241) can1 228#10A500C500293A40
(1651527929.603197) can1 3BC#0385508538000000
(1651527929.610974) can1 3C8#C038272000000000
(1651527929.613006) can1 128#C000000000003F3F
(1651527929.617838) can1 2E8#9800000461293A40
(1651527929.622609) can1 1C8#80010F483F012015
(1651527929.630592) can1 308#F000005D8005101C
(1651527929.637758) can1 088#FF0F071888010000
(1651527929.642090) can1 208#C0020820830838B2
(1651527929.652015) can1 1A8#002834832C790000
(1651527929.656272) can1 400#2400000000000000
(1651527929.660560) can1 248#0080EA42BE4BDF00
(1651527929.663373) can1 2C8#CB00000000007F7F
(1651527929.667512) can1 401#04014E0000025A00
(1651527929.670069) can1 402#2400000000000000
(1651527929.674309) can1 028#7E80140000800000
(1651527929.682323) can1 108#DF64631100000000
(1651527929.686108) can1 168#B88A00656C008431
(1651527929.690124) can1 1D8#D0000000BEC5F3C4
(1651527929.694325) can1 1E8#2000000000000000
(1651527929.698747) can1 088#FF110718A8010000
(1651527929.706409) can1 228#10E500C500293A40
(1651527929.709740) can1 268#EB38000004021802
(1651527929.712469) can1 2A8#C000000822E80000
(1651527929.715768) can1 388#F74EC88C00293A40
(1651527929.718894) can1 3B8#8000000000000000
(1651527929.721204) can1 404#2700000000000000
(1651527929.725209) can1 405#2700000000000000
(1651527929.729025) can1 068#FC0010311D438000
(1651527929.733266) can1 368#FDC0000800000000
(1651527929.738983) can1 3BC#0385508538000000
(1651527929.742333) can1 3DD#CC60062713003A1C
(1651527929.746059) can1 448#0000FF0000000000
(1651527929.751993) can1 048#FE00308F3A6B2406
(1651527929.758611) can1 088#FF120718B8010000
(1651527929.767015) can1 308#F000005D8005101C
(1651527929.773854) can1 1A8#002834832C790000
(1651527929.776739) can1 511#1302000111000003
(1651527929.784336) can1 1C8#80010F483F012015
(1651527929.787321) can1 208#C0020820830838B2
(1651527929.792306) can1 228#10A500C500293A40
(1651527929.795886) can1 088#FF130718C8010000
(1651527929.798714) can1 128#C000000000003F3F
(1651527929.801134) can1 288#F000000000910091
(1651527929.804741) can1 028#7E80140000800000
(1651527929.810388) can1 108#DF64630E00000000
(1651527929.813881) can1 168#980A00656C008431
(1651527929.816118) can1 188#3964645D293A4000
(1651527929.819854) can1 1D8#50000000BEC5F3C5
(1651527929.822037) can1 2E8#9800000461293A40
(1651527929.825461) can1 1E8#2000000000000000
(1651527929.829673) can1 248#0080EA42BE4BDF00
(1651527929.832189) can1 268#EB38000004021802
(1651527929.835420) can1 2C8#CB00000000007F7F
(1651527929.837459) can1 348#7850078542380000
(1651527929.839760) can1 388#D74EC88C00293A40
(1651527929.842047) can1 3C8#C038272000000000
(1651527929.849487) can1 068#FC0010311D438000
(1651527929.851899) can1 088#FF150718E8010000
(1651527929.861365) can1 1A8#002834832C790000
(1651527929.873392) can1 3BC#0384508538000000
(1651527929.875853) can1 048#FE00308F3A6B2406
(1651527929.877905) can1 308#F000005D8005101C
(1651527929.881411) can1 328#E0000000005D0000
(1651527929.883902) can1 228#10A500C500293A40
(1651527929.887462) can1 088#FF07071808010000
(1651527929.892040) can1 488#8009000000000000
(1651527929.895685) can1 368#FDC0000800000000
(1651527929.904507) can1 028#7E80140000800000
(1651527929.908847) can1 108#DF64631000000000
(1651527929.910820) can1 168#B88A00656C008431
(1651527929.913022) can1 1D8#D0000000BEC5F3C5
(1651527929.915049) can1 208#C0020820830838B2
(1651527929.920034) can1 388#F74EC88C00293A40
(1651527929.923544) can1 3B8#8000000000000000
(1651527929.925644) can1 448#0000FF0000000000
(1651527929.928993) can1 1E8#2000000000000000
(1651527929.934603) can1 088#FF08071818010000
(1651527929.938654) can1 1C8#80010F483F012015
(1651527929.940722) can1 268#EB38000004021802
(1651527929.942959) can1 2A8#C000000822E80000
(1651527929.952430) can1 068#FC0010311D438000
(1651527929.954656) can1 1A8#002834832C790000
(1651527929.957013) can1 248#0080EA42BE4BDF00
(1651527929.960664) can1 2C8#CB00000000007F7F
(1651527929.962707) can1 3DD#CC60062713003A1C
(1651527929.967582) can1 128#C000000000003F3F
(1651527929.972534) can1 228#10A500C500293A40
(1651527929.976082) can1 088#FF0A071838010000
(1651527929.986214) can1 308#F000005D8005101B
(1651527929.989838) can1 2E8#9800000461293A40
(1651527930.000948) can1 048#FF80308F3A6B2406
(1651527930.006559) can1 028#7E80140000800000
(1651527930.010533) can1 088#FF0B071848010000
(1651527930.012745) can1 108#DF64631300000000
(1651527930.014697) can1 168#980A00656C008431
(1651527930.016607) can1 188#3964645D293A4000
(1651527930.018490) can1 1D8#10000000BEC5F3C6
(1651527930.020919) can1 348#7850078542380000
(1651527930.023648) can1 388#D74EC88C00293A40
(1651527930.025628) can1 3BC#0384508538000000
(1651527930.027836) can1 208#C0020820830838B2
(1651527930.029956) can1 1A8#002834832C790000
(1651527930.031723) can1 1E8#2000000000000000
(1651527930.035588) can1 268#EB38000004021802
(1651527930.037597) can1 3C8#C038272000000000
(1651527930.039679) can1 513#0102100013000001
(1651527930.046798) can1 228#10A500C500293A40
(1651527930.048903) can1 068#FC0010311D438000
(1651527930.050925) can1 088#FF0C071858010000
(1651527930.054253) can1 368#FDC0000800000000
(1651527930.059654) can1 1C8#80010F483F012015
(1651527930.065916) can1 248#0080EA42BE4BDF00
(1651527930.072764) can1 2C8#CB00000000007F7F
(1651527930.080506) can1 308#F000005D8005101B
(1651527930.085052) can1 088#FF0E071878010000
(1651527930.088538) can1 3B8#8000000000000000
(1651527930.090549) can1 448#0000FF0000000000
(1651527930.096046) can1 028#7E80140000800000
(1651527930.102334) can1 108#DF64631000000000
(1651527930.105667) can1 168#B88A00656C008431
(1651527930.107812) can1 128#C000000000003F3F
(1651527930.109830) can1 1A8#002834832C790000
(1651527930.112014) can1 1D8#D0000000BEC5F3C6
(1651527930.115710) can1 388#F74EC88C00293A40
(1651527930.121027) can1 048#FE00308F3A6B2406
(1651527930.124642) can1 228#10A500C500293A40
(1651527930.126655) can1 1E8#2000000000000000
(1651527930.128883) can1 088#FF0F071888010000
(1651527930.132876) can1 268#EB38000004021802
(1651527930.136814) can1 208#C0020820830838B2
(1651527930.138703) can1 2A8#C000000822E80000
(1651527930.140630) can1 288#F000000000910091
(1651527930.142497) can1 2E8#9800000461293A40
(1651527930.144459) can1 3BC#0384508438000000
(1651527930.146374) can1 068#FC0010311D438000
(1651527930.149602) can1 3DD#CC60062713003A1C
(1651527930.163754) can1 088#FF10071898010000
(1651527930.172280) can1 308#F000005D8005101B
(1651527930.176072) can1 328#E0000000005D0000
(1651527930.178086) can1 1A8#002834832C790000
(1651527930.181372) can1 1C8#80010F483F012015
(1651527930.183815) can1 248#0080EA42BE4BDF00
(1651527930.185774) can1 2C8#CB00000000007F7F
(1651527930.188888) can1 368#FD80000800000000
(1651527930.191027) can1 028#7E80140000800000
(1651527930.196693) can1 108#DF64630B00000000
(1651527930.198723) can1 168#980A00656C008431
(1651527930.200643) can1 188#3964645D293A4000
(1651527930.202649) can1 1D8#50000000BEC5F3C6
(1651527930.204608) can1 088#FF120718B8010000
(1651527930.206719) can1 228#10A500C500293A40
(1651527930.209018) can1 348#7850078542380000
(1651527930.211267) can1 388#D74EC88C00293A40
(1651527930.214501) can1 3C8#C038272000000000
(1651527930.216711) can1 400#0113000000000000
(1651527930.219102) can1 401#050006C200000008
(1651527930.222323) can1 402#0113000000000000
(1651527930.225629) can1 404#0167BEC5F3C66006
(1651527930.227975) can1 405#0167BEC5F3C64204
(1651527930.229968) can1 1E8#2000000000000000
(1651527930.239895) can1 268#EB38000004021802
(1651527930.245179) can1 048#FE00308F3A6B2406
(1651527930.248604) can1 208#C0020820830838B2
(1651527930.252183) can1 068#FC0010311D438000
(1651527930.255793) can1 088#FF130718C8010000
(1651527930.262798) can1 128#C000000000003F3F
(1651527930.269444) can1 3BC#0384508438000000
(1651527930.272057) can1 1A8#002834832C790000
(1651527930.276331) can1 3B8#8000000000000000
(1651527930.279896) can1 448#0000FF0000000000
(1651527930.285735) can1 308#F000005D8005101B
(1651527930.288344) can1 228#10A500C500293A40
(1651527930.292935) can1 088#FF140718D8010000
(1651527930.297221) can1 028#7E80140000800000
(1651527930.302418) can1 108#DF64630F00000000
(1651527930.305836) can1 168#B88A00656C008431
(1651527930.307971) can1 1D8#90000000BEC5F3C7
(1651527930.309494) can1 2E8#9800000461293A40
(1651527930.311721) can1 388#F74EC88C00293A40
(1651527930.313682) can1 501#0302100013000001
(1651527930.316088) can1 248#0080EA42BE4BDF00
(1651527930.317957) can1 2C8#CB00000000007F7F
(1651527930.324688) can1 1C8#80010F483F012015
(1651527930.333188) can1 1E8#2000000000000000
(1651527930.334609) can1 088#FF07071808010000
(1651527930.338481) can1 268#EB38000004021802
(1651527930.340750) can1 2A8#C000000822E80000
(1651527930.348207) can1 068#FC0010311D438000
(1651527930.350215) can1 1A8#002834832C790000
(1651527930.353680) can1 368#FDC0000800000000
(1651527930.356060) can1 3DD#CC60062713003A1C
(1651527930.359774) can1 208#C0020820830838B2
(1651527930.368052) can1 048#FE00308F3A6B2406
(1651527930.370002) can1 228#10E500C500293A40
(1651527930.375032) can1 088#FF08071818010000
(1651527930.382766) can1 308#F000005D8005101B
(1651527930.389529) can1 028#7E80140000800000
(1651527930.393965) can1 108#DF64630F00000000
(1651527930.396469) can1 168#980A00656C008431
(1651527930.398474) can1 188#7964645D293A4000
(1651527930.400684) can1 1D8#50000000BEC5F3C7
(1651527930.402764) can1 348#7850078542380000
(1651527930.404861) can1 388#D74EC88C00293A40
(1651527930.406383) can1 3BC#0384508438000000
(1651527930.409683) can1 3C8#C038272000000000
(1651527930.411831) can1 088#FF09071828010000
(1651527930.413725) can1 128#C000000000003F3F
(1651527930.425647) can1 1A8#002834832C790000
(1651527930.428418) can1 1E8#2000000000000000
(1651527930.434093) can1 248#0080EA42BE4BDF00
(1651527930.437305) can1 268#EB38000004021802
(1651527930.441051) can1 2C8#CB00000000007F7F
(1651527930.448469) can1 228#10A500C500293A40
(1651527930.450738) can1 068#FC0010311D438000
(1651527930.453086) can1 488#800A000000000000
(1651527930.456966) can1 088#FF0B071848010000
(1651527930.459069) can1 1C8#80010F483F012015
(1651527930.465693) can1 3B8#8000000000000000
(1651527930.468054) can1 448#0000FF0000000000
(1651527930.470212) can1 2E8#D800000461293A40
(1651527930.474695) can1 208#C0020820830838B2
(1651527930.478186) can1 288#F000000000910091
(1651527930.487665) can1 048#FE00308F3A6B2406
(1651527930.491389) can1 308#F000005D8005101B
(1651527930.494660) can1 028#7E80140000800000
(1651527930.500062) can1 088#FF0C071858010000
(1651527930.502354) can1 108#DF64631100000000
(1651527930.507738) can1 168#B88A00656C008431
(1651527930.510081) can1 1D8#D0000000BEC5F3C8
(1651527930.513419) can1 328#E0000000005D0000
(1651527930.516050) can1 368#FDC0000800000000
(1651527930.518200) can1 388#F74EC88C00293A40
(1651527930.524081) can1 1A8#002834832C790000
(1651527930.533633) can1 3BC#0384508438000000
(1651527930.535921) can1 503#0402100013000001
(1651527930.537905) can1 228#10A500C500293A40
(1651527930.541078) can1 1E8#2000000000000000
(1651527930.544521) can1 088#FF0D071868010000
(1651527930.548761) can1 268#EB38000004021802
(1651527930.550970) can1 2A8#C000000822E80000
(1651527930.563866) can1 068#FC0010311D438000
(1651527930.565970) can1 3DD#CC60062713003A1C
(1651527930.570666) can1 248#0080EA42BE4BDF00
(1651527930.572582) can1 2C8#CB00000000007F7F
(1651527930.576305) can1 128#C000000000003F3F
(1651527930.584402) can1 088#FF0F071888010000
(1651527930.590013) can1 208#C0020820830838B2
(1651527930.592528) can1 1C8#80010F483F012015
(1651527930.594513) can1 028#7E80140000800000
(1651527930.598665) can1 108#DF64631000000000
(1651527930.600635) can1 168#980A00656C008431
(1651527930.602739) can1 188#3964645D293A4000
(1651527930.604864) can1 1A8#002834832C790000
(1651527930.607084) can1 1D8#10000000BEC5F3C8
(1651527930.610406) can1 308#F000005D8005101B
(1651527930.612534) can1 348#7850078442380000
(1651527930.614716) can1 388#D74EC88C00293A40
(1651527930.616643) can1 3C8#C038272000000000
(1651527930.618601) can1 048#FF80308F3A6B2406
(1651527930.620561) can1 228#10A500C500293A40
(1651527930.624543) can1 088#FF10071898010000
(1651527930.634634) can1 2E8#9800000461293A40
(1651527930.639426) can1 1E8#2000000000000000
(1651527930.643672) can1 268#EB38000004021802
(1651527930.646016) can1 3B8#8000000000000000
(1651527930.649183) can1 448#0000FF0000000000
(1651527930.656841) can1 068#FC0010311D438000
(1651527930.661527) can1 088#FF110718A8010000
(1651527930.663957) can1 368#FDC0000800000000
(1651527930.666064) can1 3BC#0384508438000000
(1651527930.675977) can1 1A8#002834832C790000
(1651527930.678015) can1 248#0080EA42BE4BDF00
(1651527930.681220) can1 2C8#CB00000000007F7F
(1651527930.688506) can1 028#7E80140000800000
(1651527930.692755) can1 108#DF64630E00000000
(1651527930.694954) can1 168#B88A00656C008431
(1651527930.697619) can1 1D8#D0000000BEC5F3C9
(1651527930.700025) can1 208#C0020820830838B2
(1651527930.703740) can1 088#FF130718C8010000
(1651527930.705876) can1 228#12A520C500293A40
(1651527930.707790) can1 308#F000005D8005101B
(1651527930.709811) can1 388#F74EC88C00293A40
(1651527930.717055) can1 400#0202000200010002
(1651527930.720607) can1 401#0600230269227000
(1651527930.722698) can1 128#C000000000003F3F
(1651527930.726709) can1 1C8#80010F483F012015
(1651527930.728853) can1 402#0202000200010002
(1651527930.730884) can1 404#023A360031041F6C
(1651527930.732706) can1 405#023A360031041F6C
(1651527930.736321) can1 048#FE00308F3A6B2406
(1651527930.740851) can1 1E8#2000000000000000
(1651527930.742875) can1 088#FF140718D8010000
(1651527930.746452) can1 268#EB38000004021802
(1651527930.748593) can1 2A8#C000000822E80000
(1651527930.757124) can1 504#0502000304000000
(1651527930.760353) can1 068#FC0010311D438000
(1651527930.763776) can1 1A8#002834832C7A0000
(1651527930.767171) can1 3DD#CC60062713003A1C
(1651527930.777022) can1 228#12A520C500293A40
(1651527930.781513) can1 088#FF150718E8010000
(1651527930.786031) can1 028#7E80140000800000
(1651527930.792435) can1 108#DF64630E00000000
(1651527930.795035) can1 168#980A00656C008431
(1651527930.798348) can1 188#3964645D293A4000
(1651527930.801634) can1 1D8#50000000BEC5F3C9
(1651527930.803725) can1 2E8#9800000461293A40
(1651527930.805760) can1 308#F000005D8005101B
(1651527930.808234) can1 328#E0000000005D0000
(1651527930.812306) can1 248#0080EA42BE4BDF00
(1651527930.816083) can1 288#F000000000910091
(1651527930.818535) can1 208#C0020820830838B2
(1651527930.820899) can1 2C8#C300000000007F7F
(1651527930.823795) can1 348#7850078442380000
(1651527930.826456) can1 368#FDC0000800000000
(1651527930.829537) can1 388#D74EC88C00293A40
(1651527930.831745) can1 3BC#0384508438000000
(1651527930.833775) can1 3C8#C038272000000000
(1651527930.837974) can1 088#FF08071818010000
(1651527930.839913) can1 3B8#8000000000000000
(1651527930.841873) can1 448#0000FF0000000000
(1651527930.850399) can1 1A8#002834832C7A0000
(1651527930.852532) can1 1E8#2000000000000000
(1651527930.856647) can1 268#EB38000004021802
(1651527930.864760) can1 1C8#80010F483F012015
(1651527930.866801) can1 048#FE00308F3A6B2406
(1651527930.868945) can1 228#52A520C400293A40
(1651527930.870642) can1 068#FC0010311D438000
(1651527930.872579) can1 088#FF09071828010000
(1651527930.879434) can1 128#C000000000003F3F
(1651527930.887300) can1 028#7E80140000800000
(1651527930.892552) can1 108#DF64630F00000000
(1651527930.894595) can1 168#980A00656C008431
(1651527930.896588) can1 1D8#10000000BEC5F3CA
(1651527930.898896) can1 388#D74EC88C00293A40
(1651527930.902228) can1 308#F000005D8005101B
(1651527930.907744) can1 088#FF0A071838010000
(1651527930.919844) can1 208#C0020820830838B2
(1651527930.921915) can1 3BC#0384508438000000
(1651527930.925217) can1 1A8#002834832C7A0000
(1651527930.928784) can1 248#0080EA42BE4BDF00
(1651527930.930884) can1 2C8#C800000000007F7F
(1651527930.938189) can1 228#12E520C400293A40
(1651527930.943836) can1 1E8#2000000000000000
(1651527930.945899) can1 088#FF0C071858010000
(1651527930.952490) can1 268#EB38000004021802
(1651527930.958594) can1 2A8#C000000822E80000
(1651527930.960783) can1 2E8#9800000461293A40
(1651527930.965240) can1 068#FC0010311D438000
(1651527930.969023) can1 368#FDC0000800000000
(1651527930.971511) can1 3DD#CC60062713003A1C
(1651527930.977297) can1 505#0802000305000000
(1651527930.982369) can1 048#FE00308F3A6B2406
(1651527930.986487) can1 028#7E80140000800000
(1651527930.990288) can1 088#FF0D071868010000
(1651527930.993651) can1 108#DF64630B00000000
(1651527930.995917) can1 168#B88A00656C008431
(1651527930.999136) can1 188#3964645D293A4000
(1651527931.003501) can1 1C8#80010F483F012015
(1651527931.005529) can1 1D8#D0000000BEC5F3CA
(1651527931.009152) can1 348#7850078442380000
(1651527931.012041) can1 388#F74EC88C00293A40
(1651527931.016162) can1 308#F000005D8005101B
(1651527931.019586) can1 1A8#002834832C7A0000
(1651527931.021574) can1 3C8#C038272000000000
(1651527931.025433) can1 3B8#8000000000000000
(1651527931.027897) can1 448#0000FF0000000000
(1651527931.036976) can1 228#12A520C400293A40
(1651527931.041415) can1 488#800B000000000000
(1651527931.045387) can1 088#FF0E071878010000
(1651527931.048001) can1 128#C000000000003F3F
(1651527931.051365) can1 208#C0020820830838B2
(1651527931.061380) can1 1E8#2000000000000000
(1651527931.072688) can1 248#0080EA42BE4BDF00
(1651527931.076057) can1 268#EB38000004021802
(1651527931.078474) can1 2C8#CB00000000007F7F
(1651527931.080561) can1 3BC#0384508438000000
(1651527931.085437) can1 068#FC0010311D438000
(1651527931.089020) can1 088#FF10071898010000
(1651527931.097739) can1 028#7E80140000800000
(1651527931.103279) can1 108#DF64630B00000000
(1651527931.106749) can1 168#980A00656C008431
(1651527931.109376) can1 1A8#002834822C790000
(1651527931.111794) can1 1D8#50000000BEC5F3CB
(1651527931.113910) can1 388#D74EC88C00293A40
(1651527931.121229) can1 048#FE00308F3A6B2406
(1651527931.125579) can1 228#12A520C400293A40
(1651527931.128043) can1 308#F000005D8005101B
(1651527931.131938) can1 328#E0000000005D0000
(1651527931.134265) can1 088#FF110718A8010000
(1651527931.141180) can1 368#FDC0000800000000
(1651527931.144664) can1 2E8#9800000461293A40
(1651527931.146645) can1 1C8#80010F483F012015
(1651527931.155409) can1 288#F000000000910091
(1651527931.161352) can1 208#C0020820830838B2
(1651527931.168566) can1 1E8#2000000000000000
(1651527931.170991) can1 088#FF120718B8010000
(1651527931.175420) can1 268#EB38000004021802
(1651527931.177819) can1 2A8#C000000822E80000
(1651527931.184656) can1 068#FC0010311D438000
(1651527931.187045) can1 1A8#002834822C790000
(1651527931.190757) can1 3DD#CC60062713003A1C
(1651527931.193512) can1 248#0080EA42BE4BDF00
(1651527931.195830) can1 2C8#CB00000000007F7F
(1651527931.200742) can1 028#7E80140000800000
(1651527931.206716) can1 108#DF64631100000000
(1651527931.209634) can1 128#C000000000003F3F
(1651527931.211929) can1 168#B88A00656C008431
(1651527931.217209) can1 188#3964645D293A4000
(1651527931.220857) can1 088#FF140718D8010000
(1651527931.225162) can1 1D8#90000000BEC5F3CB
(1651527931.228651) can1 228#12A520C400293A40
(1651527931.231015) can1 348#7850078442380000
(1651527931.234790) can1 378#00000000008E2326
(1651527931.237124) can1 388#F74EC88C00293A40
(1651527931.240759) can1 3B8#8000000000000000
(1651527931.243603) can1 3BC#0384508438000000
(1651527931.245741) can1 308#F000005D8005101B
(1651527931.247915) can1 3C8#C038272000000000
(1651527931.250443) can1 448#0000FF0000000000
(1651527931.258450) can1 508#0B12000008000000
(1651527931.264129) can1 048#FF80308F3A6B2406
(1651527931.266543) can1 400#0303020101020102
(1651527931.268685) can1 401#0700FB002341051E
(1651527931.272295) can1 088#FF150718E8010000
(1651527931.275622) can1 402#0303020101020102
(1651527931.277792) can1 404#0000000000000000
(1651527931.279848) can1 405#0000000000000000
(1651527931.292714) can1 1A8#002834822C780000
(1651527931.294806) can1 1E8#2000000000000000
(1651527931.300300) can1 1C8#80010F483F012015
(1651527931.303924) can1 208#C0020820830838B2
(1651527931.307430) can1 268#EB38000004021802
(1651527931.309652) can1 4D8#0000000000000000
(1651527931.313948) can1 228#12A520C400293A40
(1651527931.318423) can1 068#FC0010301D438000
(1651527931.321554) can1 368#FDC0000800000000
(1651527931.324355) can1 088#FF07071808010000
(1651527931.329854) can1 028#7E80140000800000
(1651527931.335549) can1 108#DF64631100000000
(1651527931.337528) can1 168#980A00656C008431
(1651527931.339660) can1 1D8#50000000BEC5F3CC
(1651527931.341969) can1 2E8#9800000461293A40
(1651527931.345262) can1 388#D74EC88C00293A40
(1651527931.350121) can1 248#0080EA42BE4BDF00
(1651527931.354163) can1 2C8#CB00000000007F7F
(1651527931.361504) can1 308#F000005D8005101B
(1651527931.368412) can1 3BC#0384508438000000
(1651527931.372006) can1 088#FF09071828010000
(1651527931.380665) can1 1A8#002834822C780000
(1651527931.384513) can1 128#C000000000003F3F
(1651527931.396684) can1 048#FE00308F3A6B2406
(1651527931.398709) can1 228#12A520C400293A40
(1651527931.401931) can1 1E8#2000000000000000
(1651527931.405433) can1 088#FF0A071838010000
(1651527931.412496) can1 268#EB38000004021802
(1651527931.414505) can1 2A8#C000000822E80000
(1651527931.418695) can1 208#C0020820830838B2
(1651527931.422151) can1 068#FC0010311D438000
(1651527931.425409) can1 3DD#CC60062713003A1C
(1651527931.429500) can1 028#7E80140000800000
(1651527931.433677) can1 108#DF64631300000000
(1651527931.435746) can1 168#B88A00656C008431
(1651527931.437707) can1 188#3964645D293A4000
(1651527931.439965) can1 1D8#D0000000BEC5F3CC
(1651527931.443318) can1 1C8#80010F483F012015
(1651527931.446743) can1 348#7850078442380000
(1651527931.448780) can1 388#F74EC88C00293A40
(1651527931.450701) can1 3B8#8000000000000000
(1651527931.452858) can1 088#FF0B071848010000
(1651527931.455150) can1 3C8#C038272000000000
(1651527931.458492) can1 448#0000FF0000000000
(1651527931.468434) can1 308#F000005D8005101B
(1651527931.470730) can1 328#E0000000005D0000
(1651527931.472803) can1 1A8#002834822C780000
(1651527931.477111) can1 248#0080EA42BE4BDF00
(1651527931.480711) can1 2C8#CB00000000007F7F
(1651527931.482682) can1 368#FDC0000800000000
(1651527931.488001) can1 228#12A520C400293A40
(1651527931.492556) can1 088#FF0D071868010000
(1651527931.494677) can1 50B#0C1200000B000000
(1651527931.499952) can1 3BC#0384508438000000
(1651527931.501925) can1 2E8#D800000461293A40
(1651527931.509056) can1 1E8#2000000000000000
(1651527931.514705) can1 268#EB38000004021802
(1651527931.519670) can1 288#F000000000910091
(1651527931.523371) can1 048#FE00308F3A6B2406
(1651527931.527786) can1 068#FC0010311D438000
(1651527931.530814) can1 028#7E80140000800000
(1651527931.533348) can1 088#FF0E071878010000
(1651527931.538870) can1 108#DF64630E00000000
(1651527931.542590) can1 168#980A00656C008431
(1651527931.544925) can1 1D8#50000000BEC5F3CD
(1651527931.546691) can1 208#C0020820830838B2
(1651527931.549442) can1 128#C000000000003F3F
(1651527931.552251) can1 388#D74EC88C00293A40
(1651527931.555902) can1 1A8#002834822C780000
(1651527931.568477) can1 308#F000005D8005101B
(1651527931.570501) can1 228#12A520C400293A40
(1651527931.573741) can1 088#FF0F071888010000
(1651527931.576670) can1 1C8#80010F483F012015
(1651527931.587792) can1 248#0080EA42BE4BDF00
(1651527931.592442) can1 2C8#C300000000007F7F
(1651527931.602362) can1 1E8#2000000000000000
(1651527931.605949) can1 088#FF110718A8010000
(1651527931.612503) can1 268#EB38000004021802
(1651527931.614466) can1 2A8#C000000822E80000
(1651527931.619381) can1 3B8#8000000000000000
(1651527931.621570) can1 448#0000FF0000000000
(1651527931.624278) can1 028#7E80140000800000
(1651527931.631825) can1 068#FC0010311D438000
(1651527931.635051) can1 108#DF64631000000000
(1651527931.637756) can1 168#B88A00656C008431
(1651527931.641085) can1 188#3964645D293A4000
(1651527931.643797) can1 1A8#002834822C780000
(1651527931.646353) can1 1D8#90000000BEC5F3CD
(1651527931.652504) can1 348#7850078442380000
(1651527931.656512) can1 368#FD80000800000000
(1651527931.660061) can1 388#F74EC88C00293A40
(1651527931.664107) can1 228#12E520C400293A40
(1651527931.667531) can1 048#FE00308F3A6B2406
(1651527931.670884) can1 208#C0020820830838B2
(1651527931.674178) can1 088#FF120718B8010000
(1651527931.678423) can1 3BC#0384508438000000
(1651527931.681739) can1 3C8#C038272000000000
(1651527931.687631) can1 3DD#CC60062713003A1C
(1651527931.690376) can1 488#800C000000000000
(1651527931.694835) can1 2E8#9800000461293A40
(1651527931.697947) can1 308#F000005D8005101B
(1651527931.717127) can1 088#FF130718C8010000
(1651527931.721577) can1 128#C000000000003F3F
(1651527931.727952) can1 1C8#80010F483F012015
(1651527931.732357) can1 50C#0F0200400C000000
(1651527931.735700) can1 1A8#002834822C770000
(1651527931.739705) can1 1E8#2000000000000000
(1651527931.746511) can1 248#0080EA42BE4BDF00
(1651527931.750349) can1 268#EB38000004021802
(1651527931.754265) can1 2C8#CB00000000007F7F
(1651527931.758991) can1 028#7E80140000800000
(1651527931.764164) can1 108#DF64630E00000000
(1651527931.768465) can1 168#980A00656C008431
(1651527931.771119) can1 068#FC0010311D438000
(1651527931.776059) can1 1D8#50000000BEC5F3CE
(1651527931.779672) can1 088#FF150718E8010000
(1651527931.783147) can1 228#12A520C400293A40
(1651527931.787403) can1 388#D74EC88C00293A40
(1651527931.802866) can1 3BC#0384508438000000
(1651527931.805804) can1 208#C0020820830838B2
(1651527931.812052) can1 048#FE00308F3A6B2406
(1651527931.816969) can1 308#F000005D8005101B
(1651527931.819869) can1 328#E0000000005D0000
(1651527931.822273) can1 088#FF07071808010000
(1651527931.828495) can1 368#FDC0000800000000
(1651527931.839243) can1 1A8#002834822C770000
(1651527931.842940) can1 400#0401000000010102
(1651527931.845760) can1 401#084FEE5008680000
(1651527931.848846) can1 402#0401000000010102
(1651527931.851764) can1 404#100000000053414A
(1651527931.854368) can1 3B8#8000000000000000
(1651527931.858333) can1 405#100000000053414A
(1651527931.862086) can1 448#0000FF0000000000
(1651527931.866109) can1 228#12A520C400293A40
(1651527931.873494) can1 1E8#2000000000000000
(1651527931.876837) can1 088#FF08071818010000
(1651527931.882412) can1 268#EB38000004021802
(1651527931.886121) can1 028#7E80140000800000
(1651527931.894301) can1 108#DF64630F00000000
(1651527931.898694) can1 168#B88A00656C008431
(1651527931.901809) can1 188#3964645D293A4000
(1651527931.904411) can1 1D8#D0000000BEC5F3CE
(1651527931.907262) can1 068#FC0010311D438000
(1651527931.910840) can1 2A8#C000000822E80000
(1651527931.914278) can1 1C8#80010F483F012015
(1651527931.918179) can1 248#0080EA42BE4BDF00
(1651527931.921374) can1 2C8#CB00000000007F7F
(1651527931.925430) can1 2E8#9800000461293A40
(1651527931.928028) can1 348#7850078442380000
(1651527931.929492) can1 128#C000000000003F3F
(1651527931.932261) can1 388#F74EC88C00293A40
(1651527931.936117) can1 3C8#C038272000000000
(1651527931.942536) can1 288#F000000000910091
(1651527931.944623) can1 088#FF0A071838010000
(1651527931.946623) can1 3DD#CC60062713003A1C
(1651527931.953262) can1 308#F000005D8005101B
(1651527931.957086) can1 208#C0020820830838B2
(1651527931.960893) can1 1A8#002834822C760000
(1651527931.972996) can1 3BC#0383508338000000
(1651527931.975108) can1 228#12A500C400293A40
(1651527931.978499) can1 048#FF80308F3A6B2406
(1651527931.982699) can1 088#FF0B071848010000
(1651527931.996659) can1 028#7E80140000800000
(1651527932.000740) can1 108#DF64630D00000000
(1651527932.002752) can1 168#980A00656C008431
(1651527932.005058) can1 1D8#10000000BEC5F3CF
(1651527932.007078) can1 1E8#2000000000000000
(1651527932.010292) can1 268#EB38000004021802
(1651527932.013664) can1 388#874EC88C00293A40
(1651527932.015853) can1 50F#111200400C000000
(1651527932.017862) can1 068#FC0010311D438000
(1651527932.019900) can1 088#FF0C071858010000
(1651527932.025002) can1 368#FDC0000800000000
(1651527932.034328) can1 1A8#002834822C760000
(1651527932.040723) can1 248#0080EA42BE4BDF00
(1651527932.042800) can1 2C8#CB00000000007F7F
(1651527932.049248) can1 1C8#80010F483F012015
(1651527932.050405) can1 228#10A500C400293A40
(1651527932.054448) can1 308#F000005D8005101B
(1651527932.059844) can1 088#FF0E071878010000
(1651527932.063628) can1 208#C0020820830838B2
(1651527932.067974) can1 3B8#8000000000000000
(1651527932.069948) can1 2E8#9800000461293A40
(1651527932.073106) can1 448#0000FF0000000000
(1651527932.079589) can1 128#C000000000003F3F
(1651527932.088808) can1 048#FE00308F3A6B2406
(1651527932.092582) can1 028#7E80140000800000
(1651527932.096783) can1 088#FF0F071888010000
(1651527932.100714) can1 108#DF64630D00000000
(1651527932.102712) can1 168#B88A00656C008431
(1651527932.104890) can1 188#2164645D293A4000
(1651527932.106927) can1 1D8#D0000000BEC5F3CF
(1651527932.109083) can1 1E8#2000000000000000
(1651527932.112563) can1 268#EB38000004021802
(1651527932.115975) can1 2A8#C000000822E80000
(1651527932.118269) can1 068#FC0010311D438000
(1651527932.121790) can1 1A8#002834812C750000
(1651527932.124496) can1 348#7850078442380000
(1651527932.126657) can1 388#F74EC88C00293A40
(1651527932.128938) can1 3BC#0383508338000000
(1651527932.131327) can1 3C8#C038272000000000
(1651527932.137495) can1 3DD#CC60062713003A1C
(1651527932.140146) can1 228#10A500C400293A40
(1651527932.145805) can1 088#FF10071898010000
(1651527932.154700) can1 308#F000005D8005101B
(1651527932.157792) can1 328#E0000000005D0000
(1651527932.162440) can1 248#0080EA42BE4BDF00
(1651527932.168877) can1 2C8#CB00000000007F7F
(1651527932.171111) can1 368#FDC0000800000000
(1651527932.177816) can1 208#C0020820830838B2
(1651527932.182539) can1 088#FF120718B8010000
(1651527932.185153) can1 1C8#80010F483F012015
(1651527932.193900) can1 028#7E80140000800000
(1651527932.198857) can1 108#DF64630F00000000
(1651527932.201743) can1 168#980A00656C008431
(1651527932.205826) can1 1A8#002834812C750000
(1651527932.209555) can1 1D8#50000000BEC5F3D0
(1651527932.213159) can1 1E8#2000000000000000
(1651527932.218010) can1 268#EB38000004021802
(1651527932.221751) can1 388#D74EC88C00293A40
(1651527932.225841) can1 228#10A500C400293A40
(1651527932.229153) can1 048#FE00308F3A6B2406
(1651527932.233760) can1 068#FC0010311D438000
(1651527932.237539) can1 088#FF130718C8010000
(1651527932.245306) can1 3BC#0383508338000000
(1651527932.249797) can1 2E8#9800000461293A40
(1651527932.252641) can1 128#C000000000003F3F
(1651527932.261110) can1 511#1302000111000003
(1651527932.265654) can1 3B8#8000000000000000
(1651527932.268899) can1 448#0000FF0000000000
(1651527932.275767) can1 308#F000005D8005101B
(1651527932.282863) can1 088#FF140718D8010000
(1651527932.285825) can1 288#F000000000910091
(1651527932.295098) can1 1A8#002834812C750000
(1651527932.300629) can1 248#0080EA42BE4BDF00
(1651527932.303490) can1 2C8#CB00000000007F7F
(1651527932.306298) can1 208#C0020820830838B2
(1651527932.311547) can1 028#7E80140000800000
(1651527932.318012) can1 108#DF64630E00000000
(1651527932.320496) can1 168#B88A00656C008431
(1651527932.323308) can1 188#3964645D293A4000
(1651527932.327181) can1 1D8#90000000BEC5F3D0
(1651527932.331489) can1 088#FF07071808010000
(1651527932.337806) can1 1E8#2000000000000000
(1651527932.340213) can1 228#10E500C400293A40
(1651527932.344238) can1 268#EB38000004021802
(1651527932.348014) can1 2A8#C000000822E80000
(1651527932.351888) can1 1C8#80010F483F012015
(1651527932.354247) can1 348#7850078442380000
(1651527932.357910) can1 388#F74EC88C00293A40
(1651527932.360647) can1 068#FC0010301D438000
(1651527932.363074) can1 368#FDC0000800000000
(1651527932.367023) can1 3C8#C038272000000000
(1651527932.370910) can1 3DD#CC60062713003A1C
(1651527932.373673) can1 488#800D000000000000
(1651527932.378578) can1 048#FE00308F3A6B2406
(1651527932.383905) can1 088#FF08071818010000
(1651527932.396178) can1 308#F000005D8005101B
(1651527932.400265) can1 1A8#002834812C750000
(1651527932.404140) can1 3BC#0383508338000000
(1651527932.414167) can1 228#10A500C400293A40
(1651527932.419061) can1 400#0502010000020002
(1651527932.421314) can1 401#0900000000000000
(1651527932.425668) can1 088#FF09071828010000
(1651527932.428179) can1 128#C000000000003F3F
(1651527932.432477) can1 402#0502010000020002
(1651527932.435163) can1 028#7E80140000800000
(1651527932.441413) can1 108#DF64630D00000000
(1651527932.444391) can1 168#980A00656C008431
(1651527932.446803) can1 1D8#50000000BEC5F3D1
(1651527932.449471) can1 208#C0020820830838B2
(1651527932.452193) can1 2E8#9800000461293A40
(1651527932.458490) can1 1E8#2000000000000000
(1651527932.460719) can1 248#0080EA42BE4BDF00
(1651527932.462916) can1 268#EB38000004021802
(1651527932.465796) can1 2C8#CB00000000007F7F
(1651527932.468513) can1 388#D74EC88C00293A40
(1651527932.471098) can1 404#0167BEC5F3D06006
(1651527932.473358) can1 405#0167BEC5F3D04204
(1651527932.477140) can1 068#FC0010311D438000
(1651527932.484566) can1 088#FF0B071848010000
(1651527932.488961) can1 3B8#8000000000000000
(1651527932.492551) can1 448#0000FF0000000000
(1651527932.500149) can1 1A8#002834812C740000
(1651527932.506544) can1 1C8#80010F483F012015
(1651527932.516476) can1 228#10A500C400293A40
(1651527932.519448) can1 048#FE00308F3A6B2406
(1651527932.522005) can1 308#F000005D8005101B
(1651527932.525740) can1 328#E0000000005D0000
(1651527932.528631) can1 088#FF0C071858010000
(1651527932.531438) can1 513#0102100013000001
(1651527932.536005) can1 368#FDC0000800000000
(1651527932.545882) can1 028#7E80140000800000
(1651527932.551862) can1 108#DF64630F00000000
(1651527932.554763) can1 168#B88A00656C008431
(1651527932.557846) can1 188#3964645D293A4000
(1651527932.560838) can1 1D8#D0000000BEC5F3D1
(1651527932.564726) can1 348#7850078342380000
(1651527932.567807) can1 388#F74EC88C00293A40
(1651527932.570177) can1 3BC#0383508338000000
(1651527932.573976) can1 3C8#C038272000000000
(1651527932.576190) can1 088#FF0D071868010000
(1651527932.583495) can1 1E8#2000000000000000
(1651527932.586084) can1 208#C0020820830838B2
(1651527932.589930) can1 268#EB38000004021802
(1651527932.592775) can1 2A8#C000000822E80000
(1651527932.600534) can1 068#FC0010301D438000
(1651527932.603411) can1 1A8#002834812C740000
(1651527932.606135) can1 3DD#CC60062713003A1C
(1651527932.609874) can1 248#0080EA42BE4BDF00
(1651527932.612186) can1 2C8#CB00000000007F7F
(1651527932.618002) can1 128#C000000000003F3F
(1651527932.621268) can1 228#10A500C400293A40
(1651527932.627923) can1 088#FF0F071888010000
(1651527932.634847) can1 2E8#D800000461293A40
(1651527932.639870) can1 308#F000005D8005101B
(1651527932.650733) can1 1C8#80010F483F012015
(1651527932.653042) can1 048#FF80308F3A6B2406
(1651527932.657490) can1 028#7E80140000800000
(1651527932.661984) can1 088#FF10071898010000
(1651527932.665231) can1 108#DF64631000000000
(1651527932.669097) can1 168#980A00656C008431
(1651527932.671851) can1 1D8#10000000BEC5F3D2
(1651527932.674060) can1 288#F000000000910091
(1651527932.677518) can1 388#D74EC88C00293A40
(1651527932.681965) can1 1A8#002834812C740000
(1651527932.688872) can1 1E8#2000000000000000
(1651527932.691379) can1 268#EB38000004021802
(1651527932.693412) can1 3B8#8000000000000000
(1651527932.695831) can1 448#0000FF0000000000
(1651527932.709552) can1 228#10A500C400293A40
(1651527932.711908) can1 3BC#0383508338000000
(1651527932.713742) can1 208#C0020820830838B2
(1651527932.716399) can1 068#FC0010301D438000
(1651527932.717932) can1 088#FF110718A8010000
(1651527932.721121) can1 368#FD80000800000000
(1651527932.732836) can1 248#0080EA42BE4BDF00
(1651527932.736543) can1 2C8#CB00000000007F7F
(1651527932.742015) can1 308#F000005D8005101B
(1651527932.748030) can1 088#FF130718C8010000
(1651527932.757031) can1 028#7E80140000800000
(1651527932.766685) can1 108#DF64631000000000
(1651527932.769018) can1 168#B88A00656C008431
(1651527932.771185) can1 128#C000000000003F3F
(1651527932.776172) can1 188#3964645D293A4000
(1651527932.780360) can1 1A8#002834812C740000
(1651527932.784110) can1 1D8#D0000000BEC5F3D2
(1651527932.787620) can1 348#7850078342380000
(1651527932.789845) can1 388#F74EC88C00293A40
(1651527932.792709) can1 228#10A500C400293A40
(1651527932.794995) can1 3C8#C038272000000000
(1651527932.799368) can1 048#FE00308F3A6B2406
(1651527932.804638) can1 088#FF140718D8010000
(1651527932.810165) can1 1C8#80010F483F012015
(1651527932.813764) can1 1E8#2000000000000000
(1651527932.819362) can1 268#EB38000004021802
(1651527932.824132) can1 2A8#C000000822E80000
(1651527932.828060) can1 2E8#9800000461293A40
(1651527932.832766) can1 501#0302100013000001
(1651527932.836852) can1 068#FC0010311D438000
(1651527932.839704) can1 3DD#CC60062713003A1C
(1651527932.844910) can1 208#C0020820830838B2
(1651527932.858014) can1 088#FF150718E8010000
(1651527932.860646) can1 3BC#0383508338000000
(1651527932.868826) can1 308#F000005D8005101B
(1651527932.871107) can1 328#E0000000005D0000
(1651527932.875438) can1 1A8#002834812C740000
(1651527932.879934) can1 248#0080EA42BE4BDF00
(1651527932.883727) can1 2C8#CB00000000007F7F
(1651527932.887133) can1 368#FDC0000800000000
(1651527932.892307) can1 028#7E80140000800000
(1651527932.901198) can1 108#DF64630C00000000
(1651527932.905647) can1 168#980A00656C008431
(1651527932.908996) can1 1D8#50000000BEC5F3D3
(1651527932.913619) can1 228#10A500C400293A40
(1651527932.918539) can1 088#FF08071818010000
(1651527932.921652) can1 388#D74EC88C00293A40
(1651527932.924758) can1 3B8#8000000000000000
(1651527932.927846) can1 448#0000FF0000000000
(1651527932.943882) can1 1E8#2000000000000000
(1651527932.946499) can1 268#EB38000004021802
(1651527932.953063) can1 048#FE00308F3A6B2406
(1651527932.955410) can1 068#FC0010301D438000
(1651527932.960167) can1 088#FF09071828010000
(1651527932.968610) can1 128#C000000000003F3F
(1651527932.972037) can1 1C8#80010F483F012015
(1651527932.977702) can1 208#C0020820830838B2
(1651527932.981065) can1 1A8#002834812C740000
(1651527932.990779) can1 228#10A500C400293A40
(1651527932.995125) can1 308#F000005D8005101B
(1651527932.999682) can1 488#800E000000000000
(1651527933.003824) can1 088#FF0A071838010000
(1651527933.009088) can1 028#7E80140000800000
(1651527933.015370) can1 108#DF64630A00000000
(1651527933.019246) can1 168#B88A00656C008431
(1651527933.023565) can1 188#3964645D293A4000
(1651527933.026432) can1 1D8#90000000BEC5F3D3
(1651527933.029833) can1 2E8#9800000461293A40
(1651527933.032602) can1 348#7850078342380000
(1651527933.035303) can1 388#F74EC88C00293A40
(1651527933.039145) can1 3BC#0383508338000000
(1651527933.043328) can1 248#0080EA42BE4BDF00
(1651527933.046715) can1 2C8#CB00000000007F7F
(1651527933.049501) can1 3C8#C038272000000000
(1651527933.052063) can1 400#0600010002000001
(1651527933.055678) can1 401#0A00000000000000
(1651527933.058656) can1 402#0600010002000001
(1651527933.061100) can1 404#023A360030041F6C
(1651527933.067558) can1 088#FF0C071858010000
(1651527933.072014) can1 1E8#2000000000000000
(1651527933.074049) can1 268#EB38000004021802
(1651527933.077653) can1 2A8#C000000822E80000
(1651527933.079848) can1 405#023A360030041F6C
(1651527933.082475) can1 288#F000000000910091
(1651527933.086989) can1 068#FC0010301D438000
(1651527933.090031) can1 1A8#002834812C740000
(1651527933.093402) can1 368#FDC0000800000000
(1651527933.097675) can1 3DD#CC60062713003A1C
(1651527933.101035) can1 503#0402100013000001
(1651527933.110052) can1 228#50E500C300293A40
(1651527933.114040) can1 048#FE00308F3A6B2406
(1651527933.119343) can1 088#FF0D071868010000
(1651527933.123483) can1 208#C0020820830838B2
(1651527933.130402) can1 308#F000005D8005101B
(1651527933.136315) can1 028#7E80140000800000
(1651527933.143728) can1 108#DF64630F00000000
(1651527933.146202) can1 168#980A00656C008431
(1651527933.150622) can1 1C8#80010F483F012015
(1651527933.153600) can1 1D8#50000000BEC5F3D3
(1651527933.156195) can1 388#D74EC88C00293A40
(1651527933.160637) can1 3B8#8000000000000000
(1651527933.163308) can1 448#0000FF0000000000
(1651527933.167785) can1 088#FF0E071878010000
(1651527933.170173) can1 128#C000000000003F3F
(1651527933.180909) can1 3BC#0383508338000000
(1651527933.183865) can1 1A8#002834812C740000
(1651527933.190041) can1 1E8#2000000000000000
(1651527933.192738) can1 248#0080EA42BE4BDF00
(1651527933.195226) can1 268#EB38000004021802
(1651527933.198746) can1 2C8#CB00000000007F7F
(1651527933.202404) can1 228#10A500C300293A40
(1651527933.208255) can1 068#FC0010311D438000
(1651527933.212692) can1 088#FF10071898010000
(1651527933.218816) can1 2E8#9800000461293A40
(1651527933.239137) can1 048#FE00308F3A6B2406
(1651527933.243248) can1 208#C0020820830838B2
(1651527933.247951) can1 028#7E80140000800000
(1651527933.250204) can1 088#FF110718A8010000
(1651527933.255945) can1 108#DF64630F00000000
(1651527933.257951) can1 168#B88A00656C008431
(1651527933.261454) can1 188#3964645D293A4000
(1651527933.263719) can1 1D8#D0000000BEC5F3D4
(1651527933.265647) can1 308#F000005D8005101B
(1651527933.267842) can1 328#E0000000005D0000
(1651527933.270016) can1 348#7850078342380000
(1651527933.273108) can1 1A8#002834812C740000
(1651527933.277531) can1 368#FDC0000800000000
(1651527933.279849) can1 388#F74EC88C00293A40
(1651527933.281875) can1 3C8#C038272000000000
(1651527933.291930) can1 228#10A500C300293A40
(1651527933.294120) can1 1C8#80010F483F012015
(1651527933.300107) can1 088#FF120718B8010000
(1651527933.305503) can1 1E8#2000000000000000
(1651527933.308111) can1 268#EB38000004021802
(1651527933.309884) can1 2A8#C000000822E80000
(1651527933.316540) can1 068#FC0010311D438000
(1651527933.318532) can1 3DD#CC60062713003A1C
(1651527933.325181) can1 248#0080EA42BE4BDF00
(1651527933.328720) can1 2C8#C300000000007F7F
(1651527933.330778) can1 3BC#0383508338000000
(1651527933.332705) can1 128#C000000000003F3F
(1651527933.339063) can1 088#FF140718D8010000
(1651527933.343572) can1 3B8#8000000000000000
(1651527933.347092) can1 448#0000FF0000000000
(1651527933.350551) can1 504#0502000304000000
(1651527933.353824) can1 028#7E80140000800000
(1651527933.359751) can1 108#DF64630D00000000
(1651527933.361894) can1 168#980A00656C008431
(1651527933.363642) can1 1A8#002834802C740000
(1651527933.365782) can1 1D8#10000000BEC5F3D4
(1651527933.367902) can1 208#C0020820830838B2
(1651527933.369551) can1 308#F000005D8005101B
(1651527933.371605) can1 388#D74EC88C00293A40
(1651527933.373851) can1 228#10A500C300293A40
(1651527933.377073) can1 048#FF80308F3A6B2406
(1651527933.382597) can1 088#FF150718E8010000
(1651527933.390309) can1 2E8#9800000461293A40
(1651527933.400566) can1 1E8#2000000000000000
(1651527933.402592) can1 268#EB38000004021802
(1651527933.411614) can1 068#FC0010301D438000
(1651527933.416139) can1 088#FF07071808010000
(1651527933.418341) can1 368#FDC0000800000000
(1651527933.421890) can1 1C8#80010F483F012015
(1651527933.428280) can1 288#F000000000910091
(1651527933.432128) can1 1A8#002834802C740000
(1651527933.436858) can1 2C8#CB00000000007F7F
(1651527933.438992) can1 248#0080EA42BE4BDF00
(1651527933.445379) can1 028#7E80140000800000
(1651527933.449887) can1 108#DF64630D00000000
(1651527933.451658) can1 168#B88A00656C008431
(1651527933.453783) can1 188#3964645D293A4000
(1651527933.455908) can1 1D8#D0000000BEC5F3D5
(1651527933.457825) can1 088#FF09071828010000
(1651527933.459991) can1 228#10A500C300293A40
(1651527933.463440) can1 308#F000005D8005101B
(1651527933.465486) can1 348#7850078342380000
(1651527933.467945) can1 378#00000000008E2327
(1651527933.469861) can1 388#F74EC88C00293A40
(1651527933.472885) can1 3BC#0383508338000000
(1651527933.474932) can1 3C8#C038272000000000
(1651527933.476567) can1 208#C0020820830838B2
(1651527933.480277) can1 128#C000000000003F3F
(1651527933.492982) can1 048#FE00308F3A6B2406
(1651527933.496630) can1 088#FF0A071838010000
(1651527933.502876) can1 1E8#2000000000000000
(1651527933.505113) can1 268#EB38000004021802
(1651527933.508845) can1 2A8#C000000822E80000
(1651527933.516639) can1 068#FC0010311D438000
(1651527933.519299) can1 1A8#002834802C740000
(1651527933.522817) can1 3DD#CC60062713003A1C
(1651527933.526804) can1 3B8#8000000000000000
(1651527933.529318) can1 448#0000FF0000000000
(1651527933.534234) can1 228#10A500C300293A40
(1651527933.541462) can1 088#FF0B071848010000
(1651527933.545934) can1 028#7E80140000800000
(1651527933.552188) can1 108#DF64631100000000
(1651527933.554957) can1 168#980A00656C008431
(1651527933.556921) can1 1C8#80010F483F012015
(1651527933.558878) can1 1D8#50000000BEC5F3D5
(1651527933.562481) can1 2E8#9800000461293A40
(1651527933.564409) can1 308#F000005D8005101B
(1651527933.567762) can1 328#E0000000005D0000
(1651527933.569675) can1 388#D74EC88C00293A40
(1651527933.571807) can1 248#0080EA42BE4BDF00
(1651527933.573753) can1 2C8#CB00000000007F7F
(1651527933.575740) can1 368#FDC0000800000000
(1651527933.577893) can1 505#0802000305000000
(1651527933.582298) can1 400#0700000000020000
(1651527933.587839) can1 088#FF0D071868010000
(1651527933.589805) can1 3BC#0383508338000000
(1651527933.592176) can1 401#0B00000000000000
(1651527933.593436) can1 208#C0020820830838B2
(1651527933.595636) can1 402#0700000000020000
(1651527933.597578) can1 404#0000000000000000
(1651527933.599850) can1 405#0000000000000000
(1651527933.603698) can1 1A8#002834802C740000
(1651527933.610496) can1 1E8#2000000000000000
(1651527933.612815) can1 268#EB38000004021802
(1651527933.621434) can1 228#10A500C300293A40
(1651527933.623904) can1 048#FE00308F3A6B2406
(1651527933.625909) can1 068#FC0010301D438000
(1651527933.628894) can1 488#800F000000000000
(1651527933.632519) can1 088#FF0E071878010000
(1651527933.638628) can1 128#C000000000003F3F
(1651527933.646157) can1 028#7E80140000800000
(1651527933.654471) can1 108#DF64631000000000
(1651527933.656787) can1 168#980A00656C008431
(1651527933.658858) can1 188#3964645D293A4000
(1651527933.661033) can1 1D8#50000000BEC5F3D6
(1651527933.664267) can1 348#7050078342380000
(1651527933.667710) can1 388#D74EC88C00293A40
(1651527933.669663) can1 308#F000005D8005101B
(1651527933.671809) can1 3C8#C038272000000000
(1651527933.673846) can1 088#FF0F071888010000
(1651527933.685879) can1 1A8#002834802C730000
(1651527933.690241) can1 2C8#CB00000000007F7F
(1651527933.693514) can1 1C8#80010F483F012015
(1651527933.696009) can1 248#0080EA42BE4BDF00
(1651527933.698075) can1 4D8#0000000000000000
(1651527933.702114) can1 228#10E500C300293A40
(1651527933.705359) can1 208#C0020820830838B2
(1651527933.711689) can1 088#FF110718A8010000
(1651527933.715917) can1 1E8#2000000000000000
(1651527933.717821) can1 268#EB38000004021802
(1651527933.721342) can1 2A8#C000000822E80000
(1651527933.724574) can1 2E8#9800000461293A40
(1651527933.726534) can1 3B8#8000000000000000
(1651527933.730545) can1 3BC#0382508338000000
(1651527933.732679) can1 068#FC0010301D438000
(1651527933.734597) can1 368#FDC0000800000000
(1651527933.736633) can1 3DD#CC60062713003A1C
(1651527933.738646) can1 448#0000FF0000000000
(1651527933.745657) can1 048#FE00308F3A6B2406
(1651527933.749118) can1 028#7E80140000800000
(1651527933.752542) can1 088#FF120718B8010000
(1651527933.756586) can1 108#DF64631100000000
(1651527933.758580) can1 168#B88A00656C008431
(1651527933.760672) can1 1D8#90000000BEC5F3D6
(1651527933.762635) can1 388#F74EC88C00293A40
(1651527933.766972) can1 308#F000005D8005101B
(1651527933.770365) can1 1A8#002834802C730000
(1651527933.774364) can1 288#F000000000910091
(1651527933.783724) can1 228#10A500C300293A40
(1651527933.792070) can1 088#FF130718C8010000
(1651527933.794305) can1 128#C000000000003F3F
(1651527933.797580) can1 508#0B12000008000000
(1651527933.810559) can1 1E8#2000000000000000
(1651527933.814657) can1 208#C0020820830838B2
(1651527933.816811) can1 248#0080EA42BE4BDF00
(1651527933.818780) can1 268#EB38000004021802
(1651527933.820923) can1 2C8#CB00000000007F7F
(1651527933.822986) can1 1C8#80010F483F012015
(1651527933.826261) can1 068#FC0010301D438000
(1651527933.830597) can1 088#FF150718E8010000
(1651527933.839955) can1 028#7E80140000800000
(1651527933.845164) can1 108#DF64630E00000000
(1651527933.848741) can1 168#980A00656C008431
(1651527933.850808) can1 188#3964645D293A4000
(1651527933.852957) can1 1A8#002834802C740000
(1651527933.855494) can1 1D8#50000000BEC5F3D7
(1651527933.857503) can1 348#7850078342380000
(1651527933.859594) can1 388#D74EC88C00293A40
(1651527933.862016) can1 228#10A500C300293A40
(1651527933.865262) can1 3BC#0382508338000000
(1651527933.868675) can1 3C8#C038272000000000
(1651527933.870771) can1 048#FE00308F3A6B2406
(1651527933.872824) can1 308#F000005D8005101B
(1651527933.874655) can1 088#FF07071808010000
(1651527933.877202) can1 328#E0000000005D0000
(1651527933.881597) can1 2E8#D800000461293A40
(1651527933.886993) can1 368#FDC0000800000000
(1651527933.896472) can1 3B8#8000000000000000
(1651527933.898496) can1 448#0000FF0000000000
(1651527933.907730) can1 088#FF08071818010000
(1651527933.911826) can1 1E8#2000000000000000
(1651527933.913772) can1 268#EB38000004021802
(1651527933.915772) can1 2A8#C000000822E80000
(1651527933.920927) can1 208#C0020820830838B2
(1651527933.923011) can1 068#FC0010311D438000
(1651527933.927855) can1 1A8#002834802C740000
(1651527933.931504) can1 3DD#CC60062713003A1C
(1651527933.933987) can1 2C8#CB00000000007F7F
(1651527933.937229) can1 248#0080EA42BE4BDF00
(1651527933.942525) can1 228#10A500C300293A40
(1651527933.944764) can1 028#7E80140000800000
(1651527933.949009) can1 108#DF64630D00000000
(1651527933.952914) can1 128#C000000000003F3F
(1651527933.956570) can1 168#B88A00656C008431
(1651527933.959447) can1 088#FF0A071838010000
(1651527933.961914) can1 1D8#D0000000BEC5F3D7
(1651527933.963896) can1 1C8#80010F483F012015
(1651527933.966160) can1 388#F74EC88C00293A40
(1651527933.973354) can1 308#F000005D8005101B
(1651527933.980566) can1 3BC#0382508238000000
(1651527933.988485) can1 048#FF80308F3A6B2406
(1651527933.992476) can1 088#FF0B071848010000
(1651527934.006277) can1 1A8#002834802C740000
(1651527934.016543) can1 1E8#2000000000000000
(1651527934.019142) can1 268#EB38000004021802
(1651527934.022765) can1 50B#0C1200000B000000
(1651527934.026122) can1 228#10A500C300293A40
(1651527934.033318) can1 068#FC0010301D438000
(1651527934.036085) can1 368#FD80000800000000
(1651527934.039776) can1 088#FF0C071858010000
(1651527934.043992) can1 208#C0020820830838B2
(1651527934.045975) can1 028#7E80140000800000
(1651527934.052428) can1 108#DF64630D00000000
(1651527934.054438) can1 168#980A00656C008431
(1651527934.056899) can1 188#3964645D293A4000
(1651527934.059357) can1 1D8#10000000BEC5F3D8
(1651527934.062617) can1 2E8#9800000461293A40
(1651527934.065181) can1 348#7850078342380000
(1651527934.069062) can1 388#D74EC88C00293A40
(1651527934.072999) can1 248#0080EA42BE4BDF00
(1651527934.075940) can1 2C8#CB00000000007F7F
(1651527934.079154) can1 3C8#C038272000000000
(1651527934.084935) can1 308#F000005D8005101B
(1651527934.092524) can1 088#FF0E071878010000
(1651527934.096228) can1 3B8#8000000000000000
(1651527934.100212) can1 448#0000FF0000000000
(1651527934.105764) can1 1C8#80010F483F012015
(1651527934.110085) can1 1A8#002834802C740000
(1651527934.113633) can1 400#0802380000030000
(1651527934.116455) can1 401#0C00000000000000
(1651527934.119050) can1 128#C000000000003F3F
(1651527934.122620) can1 288#F000000000910091
(1651527934.125172) can1 402#0802380000030000
(1651527934.128470) can1 404#0000000000000000
(1651527934.132936) can1 228#10A500C300293A40
(1651527934.136400) can1 3BC#0382508238000000
(1651527934.138522) can1 048#FE00308F3A6B2406
(1651527934.141404) can1 405#0000000000000000
(1651527934.143966) can1 088#FF0F071888010000
(1651527934.148107) can1 1E8#2000000000000000
(1651527934.156140) can1 268#EB38000004021802
(1651527934.160040) can1 2A8#C000000822E80000
(1651527934.163723) can1 068#FC0010311D438000
(1651527934.166593) can1 3DD#CC60062713003A1C
(1651527934.170225) can1 028#7E80140000800000
(1651527934.176520) can1 108#DF64630E00000000
(1651527934.185615) can1 168#B88A00656C008431
(1651527934.187979) can1 1D8#D0000000BEC5F3D8
(1651527934.191923) can1 388#F74EC88C00293A40
(1651527934.194166) can1 208#C0020820830838B2
(1651527934.197302) can1 088#FF10071898010000
(1651527934.210419) can1 308#F000005D8005101B
(1651527934.213867) can1 1A8#002834802C740000
(1651527934.216716) can1 328#E0000000005D0000
(1651527934.220499) can1 2C8#CB00000000007F7F
(1651527934.222871) can1 248#0080EA42BE4BDF00
(1651527934.225810) can1 368#FDC0000800000000
(1651527934.228136) can1 228#10A500C300293A40
(1651527934.234876) can1 488#8000FFFFFFFF00FF
(1651527934.238202) can1 088#FF120718B8010000
(1651527934.243981) can1 2E8#9800000461293A40
(1651527934.261114) can1 268#EB38000004021802
(1651527934.267686) can1 1E8#2000000000000000
(1651527934.270319) can1 1C8#80010F483F012015
(1651527934.276677) can1 50C#0F0200400C000000
(1651527934.280635) can1 048#FE00308F3A6B2406
(1651527934.283479) can1 028#7E80140000800000
(1651527934.285579) can1 068#FC0010311D438000
(1651527934.288071) can1 088#FF130718C8010000
(1651527934.293084) can1 108#DF64630B00000000
(1651527934.297123) can1 168#980A00656C008431
(1651527934.300015) can1 188#3964645D293A4000
(1651527934.302323) can1 128#C000000000003F3F
(1651527934.305552) can1 1D8#50000000BEC5F3D9
(1651527934.308094) can1 348#7850078242380000
(1651527934.310383) can1 1A8#002834802C740000
(1651527934.313728) can1 388#D74EC88C00293A40
(1651527934.315871) can1 3BC#0382508238000000
(1651527934.317728) can1 3C8#C038272000000000
(1651527934.320419) can1 208#C0020820830838B2
(1651527934.324215) can1 3B8#8000000000000000
(1651527934.326515) can1 228#10A500C300293A40
(1651527934.332026) can1 448#0000FF0000000000
(1651527934.335407) can1 308#F000005D8005101B
(1651527934.337654) can1 088#FF140718D8010000
(1651527934.354511) can1 248#0080EA42BE4BDF00
(1651527934.357326) can1 2C8#C800000000007F7F
(1651527934.367050) can1 088#FF07071808010000
(1651527934.372767) can1 1E8#2000000000000000
(1651527934.374960) can1 268#EB38000004021802
(1651527934.378701) can1 2A8#C000000822E80000
(1651527934.384096) can1 028#7E80140000800000
(1651527934.390189) can1 068#FC0010301D438000
(1651527934.394805) can1 108#DF64630B00000000
(1651527934.397291) can1 168#B88A00656C008431
(1651527934.400864) can1 1A8#002834802C740000
(1651527934.403736) can1 1D8#90000000BEC5F3D9
(1651527934.405670) can1 368#FDC0000800000000
(1651527934.407994) can1 228#10E500C300293A40
(1651527934.409813) can1 388#F74EC88C00293A40
(1651527934.411885) can1 3DD#CC60062713003A1C
(1651527934.415158) can1 1C8#80010F483F012015
(1651527934.418630) can1 048#FE00308F3A6B2406
(1651527934.420712) can1 088#FF08071818010000
(1651527934.424962) can1 2E8#9800000461293A40
(1651527934.431531) can1 3BC#0382508238000000
(1651527934.436013) can1 308#F000005D8005101B
(1651527934.439725) can1 208#C0020820830838B2
(1651527934.453788) can1 088#FF09071828010000
(1651527934.455978) can1 128#C000000000003F3F
(1651527934.466488) can1 1A8#002834802C740000
(1651527934.470769) can1 268#EB38000004021802
(1651527934.472828) can1 1E8#2000000000000000
(1651527934.474757) can1 248#0080EA42BE4BDF00
(1651527934.477116) can1 288#F000000000910091
(1651527934.480730) can1 228#10A500C300293A40
(1651527934.482816) can1 028#7E80140000800000
(1651527934.488533) can1 108#DF64630E00000000
(1651527934.490821) can1 068#FC0010301D438000
(1651527934.492940) can1 168#980A00656C008431
(1651527934.496266) can1 088#FF0B071848010000
(1651527934.500625) can1 188#3964645D293A4000
(1651527934.503824) can1 1D8#50000000BEC5F3DA
(1651527934.506597) can1 2C8#CB00000000007F7F
(1651527934.508625) can1 348#7850078242380000
(1651527934.510599) can1 388#D74EC88C00293A40
(1651527934.512672) can1 3B8#8000000000000000
(1651527934.514790) can1 3C8#C038272000000000
(1651527934.516785) can1 448#0000FF0000000000
(1651527934.519036) can1 50F#111200400C000000
(1651527934.529810) can1 048#FE00308F3A6B2406
(1651527934.531855) can1 308#F000005C8005101B
(1651527934.533315) can1 328#E0000000005D0000
(1651527934.536882) can1 088#FF0C071858010000
(1651527934.540236) can1 1C8#80010F483F012015
(1651527934.543919) can1 208#C0020820830838B2
(1651527934.546053) can1 368#FDC0000800000000
(1651527934.553693) can1 3BC#0382508238000000
(1651527934.555665) can1 1A8#002834802C740000
(1651527934.562144) can1 228#10A500C300293A40
(1651527934.569315) can1 088#FF0D071868010000
(1651527934.575681) can1 1E8#2000000000000000
(1651527934.577690) can1 268#EB38000004021802
(1651527934.579783) can1 028#7E80140000800000
(1651527934.585413) can1 108#DF64630E00000000
(1651527934.587660) can1 168#B88A00656C008431
(1651527934.589727) can1 1D8#D0000000BEC5F3DA
(1651527934.591818) can1 2A8#C000000822E80000
(1651527934.593956) can1 068#FC0010301D438000
(1651527934.596088) can1 2E8#9800000461293A40
(1651527934.599565) can1 388#F74EC88C00293A40
(1651527934.601607) can1 2C8#CB00000000007F7F
(1651527934.603899) can1 248#0080EA42BE4BDF00
(1651527934.605905) can1 3DD#CC60062713003A1C
(1651527934.607669) can1 128#C000000000003F3F
(1651527934.616143) can1 088#FF0F071888010000
(1651527934.625426) can1 308#F000005C8005101B
(1651527934.627947) can1 1A8#002834802C730000
(1651527934.636197) can1 228#10A500C300293A40
(1651527934.644817) can1 208#C0020820830838B2
(1651527934.647799) can1 048#FF80308F3A6B2406
(1651527934.650397) can1 400#0902020300000424
(1651527934.654337) can1 088#FF10071898010000
(1651527934.658366) can1 401#0D00000000000000
(1651527934.661779) can1 402#0902020300000424
(1651527934.664299) can1 404#0167BEC5F3DA6006
(1651527934.667798) can1 405#0167BEC5F3DA4204
(1651527934.672589) can1 1C8#80010F483F012015
(1651527934.680257) can1 268#EB38000004021802
(1651527934.684231) can1 028#7E80140000800000
(1651527934.692161) can1 108#DF64630D00000000
(1651527934.696169) can1 168#980A00656C008431
(1651527934.700204) can1 188#3964645D293A4000
(1651527934.703993) can1 1D8#10000000BEC5F3DB
(1651527934.708281) can1 1E8#2000000000000000
(1651527934.710807) can1 348#7850078242380000
(1651527934.712736) can1 068#FC0010301D438000
(1651527934.715920) can1 088#FF110718A8010000
(1651527934.719751) can1 368#FDC0000800000000
(1651527934.722086) can1 388#874EC88C00293A40
(1651527934.726218) can1 3B8#8000000000000000
(1651527934.729439) can1 3BC#0382508238000000
(1651527934.732294) can1 3C8#C038272000000000
(1651527934.735834) can1 448#0000FF0000000000
(1651527934.741745) can1 1A8#002834802C730000
(1651527934.746282) can1 2C8#CB00000000007F7F
(1651527934.750062) can1 248#0080EA42BE4BDF00
(1651527934.755004) can1 228#10A500C300293A40
(1651527934.759943) can1 308#F000005C8005101B
(1651527934.765152) can1 088#FF130718C8010000
(1651527934.769326) can1 511#1302000111000003
(1651527934.774271) can1 2E8#9800000461293A40
(1651527934.786796) can1 128#C000000000003F3F
(1651527934.790663) can1 208#C0020820830838B2
(1651527934.798316) can1 048#FE00308F3A6B2406
(1651527934.801668) can1 028#7E80140000800000
(1651527934.803851) can1 088#FF140718D8010000
(1651527934.811799) can1 108#DF64630900000000
(1651527934.814365) can1 168#B88A00656C008431
(1651527934.817736) can1 1D8#D0000000BEC5F3DB
(1651527934.819892) can1 1E8#2000000000000000
(1651527934.821782) can1 268#EB38000004021802
(1651527934.823910) can1 2A8#C000000822E80000
(1651527934.825896) can1 068#FC0010301D438000
(1651527934.827873) can1 1A8#002834802C730000
(1651527934.831770) can1 388#F74EC88C00293A40
(1651527934.836925) can1 3DD#CC60062713003A1C
(1651527934.841236) can1 1C8#80010F483F012015
(1651527934.846522) can1 228#10A500C300293A40
(1651527934.852827) can1 288#F000000000910091
(1651527934.855573) can1 3BC#0382508238000000
(1651527934.858262) can1 488#8001000000000000
(1651527934.862321) can1 088#FF150718E8010000
(1651527934.873547) can1 308#F000005C8005101B
(1651527934.876543) can1 328#E0000000005D0000
(1651527934.885085) can1 2C8#CB00000000007F7F
(1651527934.886625) can1 248#0080EA42BE4BDF00
(1651527934.888991) can1 368#FDC0000800000000
(1651527934.897642) can1 088#FF08071818010000
(1651527934.902586) can1 3B8#8000000000000000
(1651527934.904887) can1 448#0000FF0000000000
(1651527934.910681) can1 028#7E80140000800000
(1651527934.916391) can1 108#DF64630D00000000
(1651527934.924174) can1 168#980A00656C008431
(1651527934.926894) can1 188#7964645D293A4000
(1651527934.929192) can1 1A8#002834802C730000
(1651527934.933094) can1 1D8#50000000BEC5F3DC
(1651527934.936102) can1 1E8#2000000000000000
(1651527934.940364) can1 208#C0020820830838B2
(1651527934.942909) can1 228#10A500C300293A40
(1651527934.944671) can1 268#EB38000004021802
(1651527934.947305) can1 048#FE00308F3A6B2406
(1651527934.950325) can1 068#FC0010311D438000
(1651527934.954212) can1 088#FF09071828010000
(1651527934.957912) can1 348#7850078242380000
(1651527934.960528) can1 2E8#D800000461293A40
(1651527934.962751) can1 388#D74EC88C00293A40
(1651527934.968885) can1 3C8#C038272000000000
(1651527934.971065) can1 128#C000000000003F3F
(1651527934.985270) can1 1C8#80010F483F012015
(1651527934.989126) can1 308#F000005C8005101B
(1651527934.994640) can1 088#FF0A071838010000
(1651527934.996806) can1 3BC#0382508238000000
(1651527935.005555) can1 1A8#002834802C730000
(1651527935.008517) can1 513#0102100013000001
(1651527935.011884) can1 2C8#CB00000000007F7F
(1651527935.014420) can1 248#0080EA42BE4BDF00
(1651527935.017850) can1 228#10E500C300293A40
(1651527935.021035) can1 028#7E80140000800000
(1651527935.026681) can1 108#DF64630E00000000
(1651527935.028819) can1 168#B88A00656C008431
(1651527935.031589) can1 1D8#90000000BEC5F3DC
(1651527935.035136) can1 088#FF0C071858010000
(1651527935.041098) can1 1E8#2000000000000000
(1651527935.044133) can1 208#C0020820830838B2
(1651527935.047939) can1 268#EB38000004021802
(1651527935.050042) can1 2A8#C000000822E80000
(1651527935.053115) can1 388#F74EC88C00293A40
(1651527935.059070) can1 068#FC0010301D438000
(1651527935.063113) can1 368#FDC0000800000000
(1651527935.066709) can1 3DD#CC60062713003A1C
(1651527935.077746) can1 048#FE00308F3A6B2406
(1651527935.080100) can1 088#FF0D071868010000
(1651527935.092768) can1 308#F000005C8005101B
(1651527935.094933) can1 1A8#002834802C730000
(1651527935.100357) can1 3B8#8000000000000000
(1651527935.102531) can1 228#10A500C300293A40
(1651527935.104679) can1 448#0000FF0000000000
(1651527935.112048) can1 088#FF0E071878010000
(1651527935.114630) can1 128#C000000000003F3F
(1651527935.116714) can1 2E8#9800000461293A40
(1651527935.118679) can1 1C8#80010F483F012015
(1651527935.120776) can1 028#7E80140000800000
(1651527935.125355) can1 108#DF64631300000000
(1651527935.129474) can1 168#980A00656C008431
(1651527935.132358) can1 188#3964645D293A4000
(1651527935.135959) can1 1D8#50000000BEC5F3DD
(1651527935.139476) can1 348#7850078242380000
(1651527935.143735) can1 1E8#2000000000000000
(1651527935.145848) can1 268#EB38000004021802
(1651527935.147986) can1 248#0080EA42BE4BDF00
(1651527935.151383) can1 2C8#CB00000000007F7F
(1651527935.154597) can1 388#D74EC88C00293A40
(1651527935.156684) can1 3BC#0382508238000000
(1651527935.159055) can1 3C8#C038272000000000
(1651527935.162353) can1 208#C0020820830838B2
(1651527935.166149) can1 068#FC0010301D438000
(1651527935.169352) can1 088#FF10071898010000
(1651527935.182273) can1 1A8#002834802C730000
(1651527935.190163) can1 228#10A500C300293A40
(1651527935.200150) can1 288#F000000000910091
(1651527935.202239) can1 048#FE00308F3A6B2406
(1651527935.206229) can1 308#F000005C8005101B
(1651527935.209838) can1 088#FF110718A8010000
(1651527935.212268) can1 328#E0000000005D0000
(1651527935.217126) can1 368#FDC0000800000000
(1651527935.224194) can1 400#0A00000000001100
(1651527935.226317) can1 401#0E00000000000000
(1651527935.229716) can1 402#0A00000000001100
(1651527935.232056) can1 028#7E80140000800000
(1651527935.237542) can1 108#DF64630E00000000
(1651527935.239866) can1 168#B88A00656C008431
(1651527935.241699) can1 1D8#D0000000BEC5F3DD
(1651527935.243893) can1 388#F74EC88C00293A40
(1651527935.245927) can1 404#023A360030041F6C
(1651527935.249194) can1 405#023A360030041F6C
(1651527935.253544) can1 088#FF120718B8010000
(1651527935.259440) can1 1E8#2000000000000000
(1651527935.261500) can1 268#EB38000004021802
(1651527935.263843) can1 2A8#C000000822E80000
(1651527935.271856) can1 1C8#80010F483F012015
(1651527935.273992) can1 068#FC0010301D438000
(1651527935.275991) can1 1A8#002834802C740000
(1651527935.279887) can1 3BC#0381508138000000
(1651527935.282731) can1 2C8#CB00000000007F7F
(1651527935.284966) can1 3DD#CC60062713003A1C
(1651527935.288837) can1 208#C0020820830838B2
(1651527935.291843) can1 228#10A500C300293A40
(1651527935.294484) can1 128#C000000000003F3F
(1651527935.296616) can1 248#0080EA42BE4BDF00
(1651527935.299108) can1 501#0302100013000001
(1651527935.303978) can1 088#FF140718D8010000
(1651527935.308308) can1 2E8#9800000461293A40
(1651527935.312152) can1 3B8#8000000000000000
(1651527935.318646) can1 448#0000FF0000000000
(1651527935.323487) can1 308#F000005C8005101B
(1651527935.337206) can1 048#FF80308F3A6B2406
(1651527935.341896) can1 028#7E80140000800000
(1651527935.344968) can1 088#FF150718E8010000
(1651527935.350565) can1 108#DF64630D00000000
(1651527935.353534) can1 168#980A00656C008431
(1651527935.356512) can1 188#3964645D293A4000
(1651527935.359724) can1 1D8#50000000BEC5F3DE
(1651527935.362282) can1 348#7850078242380000
(1651527935.366117) can1 388#D74EC88C00293A40
(1651527935.369630) can1 3C8#C038272000000000
(1651527935.372220) can1 1A8#002834802C740000
(1651527935.379329) can1 268#EB38000004021802
(1651527935.382579) can1 1E8#2000000000000000
(1651527935.386014) can1 228#10A500C300293A40
(1651527935.396692) can1 068#FC0010301D438000
(1651527935.399021) can1 368#FD80000800000000
(1651527935.402562) can1 088#FF07071808010000
(1651527935.411616) can1 208#C0020820830838B2
(1651527935.420499) can1 2C8#CB00000000007F7F
(1651527935.422699) can1 1C8#80010F483F012015
(1651527935.424787) can1 248#0080EA42BE4BDF00
(1651527935.426801) can1 3BC#0381508138000000
(1651527935.431501) can1 308#F000005C8005101B
(1651527935.433464) can1 088#FF09071828010000
(1651527935.443281) can1 028#7E80140000800000
(1651527935.450533) can1 108#DF64630E00000000
(1651527935.452699) can1 168#B88A00656C008431
(1651527935.454740) can1 128#C000000000003F3F
(1651527935.456983) can1 1A8#002834802C740000
(1651527935.458998) can1 1D8#90000000BEC5F3DE
(1651527935.462281) can1 228#10A500C300293A40
(1651527935.465636) can1 388#F74EC88C00293A40
(1651527935.470774) can1 488#8002000000000000
(1651527935.473164) can1 048#FE00308F3A6B2406
(1651527935.475242) can1 088#FF0A071838010000
(1651527935.480722) can1 1E8#2000000000000000
(1651527935.482570) can1 268#EB38000004021802
(1651527935.487572) can1 2A8#C000000822E80000
(1651527935.489573) can1 2E8#9800000461293A40
(1651527935.492836) can1 068#FC0010301D438000
(1651527935.495041) can1 3DD#CC60062713003A1C
(1651527935.501090) can1 3B8#8000000000000000
(1651527935.504884) can1 448#0000FF0000000000
(1651527935.514772) can1 088#FF0B071848010000
(1651527935.518189) can1 208#C0020820830838B2
(1651527935.521631) can1 503#0402100013000001
(1651527935.528568) can1 308#F000005C8005101B
(1651527935.530676) can1 1A8#002834802C740000
(1651527935.532651) can1 328#E0000000005D0000
(1651527935.534578) can1 2C8#C300000000007F7F
(1651527935.538526) can1 248#0080EA42BE4BDF00
(1651527935.540630) can1 228#10A500C300293A40
(1651527935.542536) can1 368#FDC0000800000000
(1651527935.544615) can1 028#7E80140000800000
(1651527935.549672) can1 108#DF64630C00000000
(1651527935.552832) can1 168#980A00656C008431
(1651527935.554803) can1 188#3964645D293A4000
(1651527935.556988) can1 088#FF0D071868010000
(1651527935.558432) can1 1C8#80010F483F012015
(1651527935.561651) can1 1D8#50000000BEC5F3DE
(1651527935.565468) can1 288#F000000000910091
(1651527935.567502) can1 348#7850078242380000
(1651527935.569493) can1 378#00000000008E2328
(1651527935.571807) can1 388#D74EC88C00293A40
(1651527935.573678) can1 3BC#0381508138000000
(1651527935.575688) can1 3C8#C038272000000000
(1651527935.579752) can1 268#EB38000004021802
(1651527935.583753) can1 1E8#2000000000000000
(1651527935.591720) can1 048#FE00308F3A6B2406
(1651527935.594031) can1 068#FC0010301D438000
(1651527935.597409) can1 088#FF0E071878010000
(1651527935.605814) can1 128#C000000000003F3F
(1651527935.613134) can1 1A8#002834802C740000
(1651527935.623477) can1 228#10A500C300293A40
(1651527935.630268) can1 208#C0020820830838B2
(1651527935.634814) can1 308#F000005D8005101B
(1651527935.642948) can1 088#FF0F071888010000
(1651527935.649051) can1 2E8#9800000461293A40
(1651527935.653936) can1 028#7E80140000800000
(1651527935.660764) can1 108#DF64630B00000000
(1651527935.664278) can1 168#B88A00656C008431
(1651527935.669949) can1 1D8#D0000000BEC5F3DF
(1651527935.673723) can1 388#F74EC88C00293A40
(1651527935.679993) can1 2C8#CB00000000007F7F
(1651527935.684159) can1 248#0080EA42BE4BDF00
(1651527935.694711) can1 088#FF110718A8010000
(1651527935.698756) can1 1E8#2000000000000000
(1651527935.701137) can1 268#EB38000004021802
(1651527935.704423) can1 1C8#80010F483F012015
(1651527935.712311) can1 2A8#C000000822E80000
(1651527935.716353) can1 3B8#8000000000000000
(1651527935.718475) can1 3BC#0381508138000000
(1651527935.720684) can1 448#0000FF0000000000
(1651527935.723432) can1 068#FC0010301D438000
(1651527935.725622) can1 1A8#002834802C740000
(1651527935.728142) can1 368#FDC0000800000000
(1651527935.730364) can1 3DD#CC60062713003A1C
(1651527935.734758) can1 228#10E500C300293A40
(1651527935.744381) can1 048#FE00308F3A6B2406
(1651527935.746628) can1 088#FF120718B8010000
(1651527935.756757) can1 308#F000005D8005101B
(1651527935.761074) can1 028#7E80140000800000
(1651527935.767687) can1 108#DF64630F00000000
(1651527935.769825) can1 168#980A00656C008431
(1651527935.772152) can1 188#3964645D293A4000
(1651527935.775579) can1 1D8#10000000BEC5F3DF
(1651527935.777716) can1 208#C0020820830838B2
(1651527935.779839) can1 348#7850078142380000
(1651527935.781648) can1 388#D74EC88C00293A40
(1651527935.783792) can1 3C8#C038272000000000
(1651527935.787303) can1 088#FF130718C8010000
(1651527935.791140) can1 128#C000000000003F3F
(1651527935.794456) can1 400#0B00000000000100
(1651527935.796990) can1 401#0F00000000000000
(1651527935.800414) can1 402#0B00000000000100
(1651527935.803104) can1 404#0500000000000833
(1651527935.806896) can1 405#0500000000000833
(1651527935.812886) can1 1A8#0028347F2C740000
(1651527935.815864) can1 504#0502000304000000
(1651527935.821913) can1 268#EB38000004021802
(1651527935.824642) can1 1E8#2000000000000000
(1651527935.827160) can1 228#10A500C300293A40
(1651527935.830860) can1 248#0080EA42BE4BDF00
(1651527935.833195) can1 2C8#CB00000000007F7F
(1651527935.838890) can1 068#FC0010301D438000
(1651527935.841408) can1 088#FF150718E8010000
(1651527935.844793) can1 2E8#9800000461293A40
(1651527935.851855) can1 3BC#0381508138000000
(1651527935.857806) can1 1C8#80010F483F012015
(1651527935.869461) can1 048#FE00308F3A6B2406
(1651527935.872389) can1 308#F000005D8005101B
(1651527935.874630) can1 028#7E80140000800000
(1651527935.876649) can1 088#FF07071808010000
(1651527935.882126) can1 108#DF64631000000000
(1651527935.885789) can1 168#B88A00656C008431
(1651527935.888196) can1 1D8#D0000000BEC5F3E0
(1651527935.891901) can1 328#E0000000005D0000
(1651527935.894489) can1 368#FDC0000800000000
(1651527935.897113) can1 388#F74EC88C00293A40
(1651527935.899655) can1 1A8#0028347F2C740000
(1651527935.902013) can1 208#C0020820830838B2
(1651527935.907881) can1 3B8#8000000000000000
(1651527935.910109) can1 228#10A500C300293A40
(1651527935.913893) can1 448#0000FF0000000000
(1651527935.923031) can1 088#FF08071818010000
(1651527935.929413) can1 1E8#2000000000000000
(1651527935.931851) can1 268#EB38000004021802
(1651527935.933822) can1 288#F000000000910091
(1651527935.935631) can1 2A8#C000000822E80000
(1651527935.941447) can1 068#FC0010301D438000
(1651527935.943816) can1 3DD#CC60062713003A1C
(1651527935.951163) can1 2C8#CB00000000007F7F
(1651527935.955730) can1 248#0080EA42BE4BDF00
(1651527935.960030) can1 128#C000000000003F3F
(1651527935.965377) can1 088#FF0A071838010000
(1651527935.975418) can1 028#7E80140000800000
(1651527935.979806) can1 108#DF64631100000000
(1651527935.981792) can1 168#980A00656C008431
(1651527935.983933) can1 188#3964645D293A4000
(1651527935.987799) can1 1A8#0028347F2C740000
(1651527935.989728) can1 1D8#50000000BEC5F3E0
(1651527935.991740) can1 1C8#80010F483F012015
(1651527935.993711) can1 228#10A500C300293A40
(1651527935.995755) can1 308#F000005D8005101B
(1651527935.997800) can1 348#7850078142380000
(1651527935.999942) can1 388#D74EC88C00293A40
(1651527936.003511) can1 048#FF80308F3A6B2406
(1651527936.005501) can1 3BC#0381508138000000
(1651527936.007600) can1 088#FF0B071848010000
(1651527936.009571) can1 2E8#D800000461293A40
(1651527936.011717) can1 3C8#C038272000000000
(1651527936.018070) can1 208#C0020820830838B2
(1651527936.021621) can1 4D8#0000000000000000
(1651527936.030456) can1 268#EB38000004021802
(1651527936.032673) can1 1E8#2000000000000000
(1651527936.041575) can1 068#FC0010301D438000
(1651527936.043936) can1 368#FDC0000800000000
(1651527936.045914) can1 088#FF0C071858010000
(1651527936.049416) can1 505#0802000305000000
(1651527936.058486) can1 1A8#0028347F2C740000
(1651527936.063121) can1 2C8#CB00000000007F7F
(1651527936.066558) can1 228#10A500C300293A40
(1651527936.068724) can1 248#0080EA42BE4BDF00
(1651527936.072185) can1 028#7E80140000800000
(1651527936.077788) can1 108#DF64630D00000000
(1651527936.080063) can1 168#B88A00656C008431
(1651527936.083586) can1 1D8#90000000BEC5F3E1
(1651527936.085557) can1 088#FF0E071878010000
(1651527936.087665) can1 308#F000005D8005101B
(1651527936.089608) can1 388#F74EC88C00293A40
(1651527936.091843) can1 3B8#8000000000000000
(1651527936.093965) can1 448#0000FF0000000000
(1651527936.095817) can1 488#8003000000000000
(1651527936.103439) can1 128#C000000000003F3F
(1651527936.108698) can1 3BC#0381508138000000
(1651527936.115551) can1 208#C0020820830838B2
(1651527936.117755) can1 048#FE00308F3A6B2406
(1651527936.120903) can1 088#FF0F071888010000
(1651527936.126408) can1 1C8#80010F483F012015
(1651527936.128906) can1 1E8#2000000000000000
(1651527936.131265) can1 268#EB38000004021802
(1651527936.134542) can1 2A8#C000000822E80000
(1651527936.142321) can1 068#FC0010301D438000
(1651527936.145578) can1 1A8#0028347F2C740000
(1651527936.147847) can1 3DD#CC60062713003A1C
(1651527936.151036) can1 228#10A500C300293A40
(1651527936.160749) can1 088#FF10071898010000
(1651527936.163065) can1 2E8#9800000461293A40
(1651527936.169386) can1 028#7E80140000800000
(1651527936.175566) can1 108#DF64630B00000000
(1651527936.177676) can1 168#980A00656C008431
(1651527936.179942) can1 188#3964645D293A4000
(1651527936.181845) can1 1D8#50000000BEC5F3E1
(1651527936.184932) can1 308#F000005D8005101B
(1651527936.186721) can1 328#E0000000005D0000
